!Agilent Technologies,E8358A,US40260201,A.04.06
!Agilent E8358A: A.04.06
!Date: Saturday, February 25, 2012 15:54:25
!Correction: S11(Full 2 Port SOLT,1,2) S21(Full 2 Port SOLT,1,2) S12(Full 2 Port SOLT,1,2) S22(Full 2 Port SOLT,1,2) 
!S2P File: Measurements: S11, S21, S12, S22:
# Hz S  MA   R 50
3.000000e+009 2.567808e-001 -1.646686e+002 1.280898e+000 -3.764952e+001 3.288233e-002 -9.109423e+001 2.409222e-001 -5.489117e+001
3.002500e+009 2.373410e-001 -1.627313e+002 1.303800e+000 -4.152110e+001 3.315550e-002 -9.754028e+001 2.362111e-001 -5.725082e+001
3.005000e+009 2.231023e-001 -1.599218e+002 1.327316e+000 -4.523933e+001 3.306958e-002 -9.976824e+001 2.323861e-001 -5.917054e+001
3.007500e+009 2.098053e-001 -1.569294e+002 1.345503e+000 -4.918636e+001 3.556980e-002 -1.027617e+002 2.291546e-001 -6.130131e+001
3.010000e+009 1.987763e-001 -1.537011e+002 1.366132e+000 -5.304508e+001 3.601607e-002 -1.069525e+002 2.247591e-001 -6.286628e+001
3.012500e+009 1.876244e-001 -1.489303e+002 1.378221e+000 -5.670874e+001 3.454735e-002 -1.110010e+002 2.168360e-001 -6.514488e+001
3.015000e+009 1.792278e-001 -1.441706e+002 1.397384e+000 -6.064495e+001 3.640169e-002 -1.153745e+002 2.161822e-001 -6.711522e+001
3.017500e+009 1.775944e-001 -1.383892e+002 1.416157e+000 -6.447777e+001 3.556289e-002 -1.195001e+002 2.114634e-001 -6.911129e+001
3.020000e+009 1.722281e-001 -1.333060e+002 1.432886e+000 -6.822505e+001 3.613876e-002 -1.222568e+002 2.055686e-001 -7.100737e+001
3.022500e+009 1.766961e-001 -1.287579e+002 1.445985e+000 -7.210934e+001 3.611484e-002 -1.248902e+002 2.031168e-001 -7.375974e+001
3.025000e+009 1.776794e-001 -1.226265e+002 1.459326e+000 -7.590349e+001 3.543402e-002 -1.301451e+002 1.991874e-001 -7.635545e+001
3.027500e+009 1.834910e-001 -1.188733e+002 1.465878e+000 -7.954871e+001 3.878175e-002 -1.312267e+002 1.958147e-001 -7.894217e+001
3.030000e+009 1.897245e-001 -1.143572e+002 1.472322e+000 -8.326127e+001 3.973382e-002 -1.362247e+002 1.918537e-001 -8.168322e+001
3.032500e+009 1.994976e-001 -1.110991e+002 1.477848e+000 -8.696455e+001 4.008149e-002 -1.403869e+002 1.898765e-001 -8.384496e+001
3.035000e+009 2.109552e-001 -1.081342e+002 1.489990e+000 -9.047968e+001 3.963756e-002 -1.429856e+002 1.838508e-001 -8.630972e+001
3.037500e+009 2.184844e-001 -1.056054e+002 1.493146e+000 -9.415501e+001 4.155043e-002 -1.437520e+002 1.801199e-001 -8.873392e+001
3.040000e+009 2.298418e-001 -1.044428e+002 1.499392e+000 -9.748144e+001 3.903730e-002 -1.510947e+002 1.780762e-001 -9.186086e+001
3.042500e+009 2.415016e-001 -1.028159e+002 1.497658e+000 -1.010550e+002 3.876522e-002 -1.519687e+002 1.744207e-001 -9.312457e+001
3.045000e+009 2.560805e-001 -1.012555e+002 1.503728e+000 -1.042723e+002 3.952548e-002 -1.590062e+002 1.725836e-001 -9.600678e+001
3.047500e+009 2.666065e-001 -1.009277e+002 1.503769e+000 -1.077159e+002 3.950865e-002 -1.623416e+002 1.699797e-001 -9.887753e+001
3.050000e+009 2.764409e-001 -1.002572e+002 1.507546e+000 -1.107887e+002 3.942143e-002 -1.601952e+002 1.684427e-001 -1.008172e+002
3.052500e+009 2.926248e-001 -9.999769e+001 1.511565e+000 -1.139708e+002 4.030006e-002 -1.665084e+002 1.687452e-001 -1.031085e+002
3.055000e+009 3.037728e-001 -1.005092e+002 1.514355e+000 -1.172208e+002 3.859745e-002 -1.738040e+002 1.675553e-001 -1.057008e+002
3.057500e+009 3.183607e-001 -1.000821e+002 1.514399e+000 -1.202967e+002 4.156260e-002 -1.741423e+002 1.662189e-001 -1.081781e+002
3.060000e+009 3.277444e-001 -1.006362e+002 1.520985e+000 -1.230669e+002 4.079244e-002 -1.763381e+002 1.703536e-001 -1.103298e+002
3.062500e+009 3.384685e-001 -1.011039e+002 1.524288e+000 -1.263415e+002 3.937716e-002 -1.771409e+002 1.682004e-001 -1.125816e+002
3.065000e+009 3.499643e-001 -1.018508e+002 1.531622e+000 -1.293775e+002 4.102321e-002 1.765362e+002 1.719181e-001 -1.153008e+002
3.067500e+009 3.579460e-001 -1.020002e+002 1.536642e+000 -1.324553e+002 4.026704e-002 1.711035e+002 1.682415e-001 -1.189273e+002
3.070000e+009 3.714449e-001 -1.030075e+002 1.544993e+000 -1.353191e+002 4.149693e-002 1.723420e+002 1.725370e-001 -1.214482e+002
3.072500e+009 3.787684e-001 -1.035539e+002 1.549601e+000 -1.384129e+002 4.190353e-002 1.680582e+002 1.731752e-001 -1.245732e+002
3.075000e+009 3.916075e-001 -1.043691e+002 1.561118e+000 -1.414752e+002 4.243967e-002 1.636305e+002 1.724793e-001 -1.277768e+002
3.077500e+009 3.975949e-001 -1.048457e+002 1.560089e+000 -1.444214e+002 4.062455e-002 1.634605e+002 1.713420e-001 -1.291843e+002
3.080000e+009 4.045204e-001 -1.056242e+002 1.563155e+000 -1.476492e+002 4.166543e-002 1.597675e+002 1.728341e-001 -1.326883e+002
3.082500e+009 4.134777e-001 -1.067399e+002 1.569365e+000 -1.504551e+002 4.215848e-002 1.591083e+002 1.726272e-001 -1.356582e+002
3.085000e+009 4.217705e-001 -1.074064e+002 1.573263e+000 -1.535732e+002 4.220598e-002 1.537645e+002 1.731967e-001 -1.382797e+002
3.087500e+009 4.304319e-001 -1.082358e+002 1.578619e+000 -1.565527e+002 4.276990e-002 1.516015e+002 1.721213e-001 -1.417487e+002
3.090000e+009 4.355437e-001 -1.090693e+002 1.581792e+000 -1.596432e+002 4.103563e-002 1.465385e+002 1.717889e-001 -1.444935e+002
3.092500e+009 4.416649e-001 -1.099632e+002 1.578847e+000 -1.625727e+002 4.092642e-002 1.469300e+002 1.699999e-001 -1.467587e+002
3.095000e+009 4.485743e-001 -1.104030e+002 1.568272e+000 -1.654939e+002 4.327349e-002 1.420444e+002 1.719287e-001 -1.500675e+002
3.097500e+009 4.544367e-001 -1.114641e+002 1.567600e+000 -1.685190e+002 4.387062e-002 1.412047e+002 1.720815e-001 -1.529862e+002
3.100000e+009 4.585127e-001 -1.124322e+002 1.571757e+000 -1.712177e+002 4.271855e-002 1.387728e+002 1.700155e-001 -1.552519e+002
3.102500e+009 4.653211e-001 -1.127843e+002 1.560642e+000 -1.739709e+002 4.439894e-002 1.347471e+002 1.717090e-001 -1.581554e+002
3.105000e+009 4.700345e-001 -1.137392e+002 1.555595e+000 -1.767646e+002 4.460441e-002 1.333450e+002 1.696085e-001 -1.604759e+002
3.107500e+009 4.757739e-001 -1.145319e+002 1.548043e+000 -1.792735e+002 4.338153e-002 1.298266e+002 1.694052e-001 -1.643948e+002
3.110000e+009 4.800431e-001 -1.153553e+002 1.548548e+000 1.779453e+002 4.391876e-002 1.275706e+002 1.708481e-001 -1.671835e+002
3.112500e+009 4.843130e-001 -1.161486e+002 1.544393e+000 1.754786e+002 4.247585e-002 1.258710e+002 1.704122e-001 -1.699370e+002
3.115000e+009 4.870490e-001 -1.169810e+002 1.540035e+000 1.732197e+002 4.356303e-002 1.232927e+002 1.699453e-001 -1.734484e+002
3.117500e+009 4.900810e-001 -1.177836e+002 1.537367e+000 1.707002e+002 4.276576e-002 1.176730e+002 1.705980e-001 -1.766573e+002
3.120000e+009 4.939565e-001 -1.182294e+002 1.538371e+000 1.684834e+002 4.370103e-002 1.184991e+002 1.709693e-001 1.799484e+002
3.122500e+009 4.958405e-001 -1.188919e+002 1.542227e+000 1.661577e+002 4.203478e-002 1.149474e+002 1.703327e-001 1.757375e+002
3.125000e+009 4.983739e-001 -1.198037e+002 1.537900e+000 1.638855e+002 4.170827e-002 1.124173e+002 1.707293e-001 1.726193e+002
3.127500e+009 5.004084e-001 -1.202358e+002 1.543747e+000 1.614121e+002 4.373096e-002 1.153306e+002 1.708139e-001 1.688254e+002
3.130000e+009 5.037761e-001 -1.209615e+002 1.552558e+000 1.590283e+002 4.162512e-002 1.098381e+002 1.687335e-001 1.647151e+002
3.132500e+009 5.038804e-001 -1.217229e+002 1.554945e+000 1.568820e+002 4.266605e-002 1.077879e+002 1.702262e-001 1.615232e+002
3.135000e+009 5.049942e-001 -1.226361e+002 1.558784e+000 1.544106e+002 4.309954e-002 1.044109e+002 1.729215e-001 1.569564e+002
3.137500e+009 5.094538e-001 -1.235540e+002 1.570834e+000 1.520346e+002 4.246137e-002 1.057068e+002 1.748783e-001 1.529063e+002
3.140000e+009 5.085183e-001 -1.239839e+002 1.577205e+000 1.494503e+002 4.682252e-002 9.910013e+001 1.750162e-001 1.488997e+002
3.142500e+009 5.113930e-001 -1.245606e+002 1.580789e+000 1.470933e+002 4.596068e-002 9.795406e+001 1.760499e-001 1.445635e+002
3.145000e+009 5.126284e-001 -1.250616e+002 1.583966e+000 1.443909e+002 4.448834e-002 9.670252e+001 1.777613e-001 1.418555e+002
3.147500e+009 5.157713e-001 -1.259766e+002 1.586278e+000 1.417416e+002 4.531933e-002 9.205925e+001 1.796937e-001 1.371982e+002
3.150000e+009 5.155498e-001 -1.267354e+002 1.588982e+000 1.392192e+002 4.694567e-002 8.907214e+001 1.814737e-001 1.339045e+002
3.152500e+009 5.174914e-001 -1.278108e+002 1.591666e+000 1.366386e+002 4.482378e-002 8.937206e+001 1.839264e-001 1.299935e+002
3.155000e+009 5.174218e-001 -1.282415e+002 1.584618e+000 1.341161e+002 4.636620e-002 8.641624e+001 1.871151e-001 1.264499e+002
3.157500e+009 5.167280e-001 -1.290800e+002 1.588297e+000 1.317462e+002 4.631674e-002 8.234584e+001 1.909040e-001 1.227241e+002
3.160000e+009 5.171888e-001 -1.301180e+002 1.584776e+000 1.292252e+002 4.543982e-002 8.164359e+001 1.938223e-001 1.198827e+002
3.162500e+009 5.204303e-001 -1.308902e+002 1.578933e+000 1.268752e+002 4.821720e-002 7.606089e+001 1.992405e-001 1.168931e+002
3.165000e+009 5.179891e-001 -1.316455e+002 1.578662e+000 1.245688e+002 4.436472e-002 7.493224e+001 2.033157e-001 1.137497e+002
3.167500e+009 5.182287e-001 -1.324712e+002 1.570255e+000 1.222564e+002 4.571581e-002 7.379657e+001 2.088097e-001 1.100510e+002
3.170000e+009 5.182223e-001 -1.333179e+002 1.566577e+000 1.201556e+002 4.639707e-002 7.384463e+001 2.121803e-001 1.071181e+002
3.172500e+009 5.181574e-001 -1.341818e+002 1.561979e+000 1.180267e+002 4.538293e-002 6.740472e+001 2.178339e-001 1.037942e+002
3.175000e+009 5.202132e-001 -1.350590e+002 1.562034e+000 1.159107e+002 4.624218e-002 6.559811e+001 2.229392e-001 1.012432e+002
3.177500e+009 5.158979e-001 -1.358011e+002 1.560057e+000 1.138628e+002 4.501662e-002 6.701891e+001 2.284387e-001 9.809138e+001
3.180000e+009 5.155933e-001 -1.365132e+002 1.562389e+000 1.119253e+002 4.598805e-002 6.246111e+001 2.320514e-001 9.528307e+001
3.182500e+009 5.160361e-001 -1.373114e+002 1.572867e+000 1.097230e+002 4.537251e-002 6.048194e+001 2.369231e-001 9.295810e+001
3.185000e+009 5.150762e-001 -1.379175e+002 1.571595e+000 1.075246e+002 4.510781e-002 5.909127e+001 2.426922e-001 8.998983e+001
3.187500e+009 5.146898e-001 -1.388080e+002 1.579574e+000 1.057249e+002 4.652721e-002 5.948393e+001 2.494203e-001 8.744735e+001
3.190000e+009 5.113850e-001 -1.394521e+002 1.584095e+000 1.035019e+002 4.640197e-002 5.565910e+001 2.514047e-001 8.481272e+001
3.192500e+009 5.125213e-001 -1.401408e+002 1.595330e+000 1.013563e+002 4.576437e-002 5.467865e+001 2.554125e-001 8.262848e+001
3.195000e+009 5.127684e-001 -1.409918e+002 1.605315e+000 9.912281e+001 4.624248e-002 5.450614e+001 2.604790e-001 7.944832e+001
3.197500e+009 5.139635e-001 -1.416334e+002 1.609780e+000 9.702178e+001 4.813150e-002 4.915602e+001 2.629443e-001 7.733752e+001
3.200000e+009 5.157492e-001 -1.424939e+002 1.613336e+000 9.467425e+001 4.850862e-002 4.927184e+001 2.672903e-001 7.492156e+001
3.202500e+009 5.143078e-001 -1.432158e+002 1.623397e+000 9.234082e+001 4.695032e-002 4.388247e+001 2.699510e-001 7.257992e+001
3.205000e+009 5.143889e-001 -1.437359e+002 1.628348e+000 8.989245e+001 5.016575e-002 4.296153e+001 2.723243e-001 7.072620e+001
3.207500e+009 5.137444e-001 -1.444090e+002 1.634971e+000 8.739737e+001 4.882832e-002 4.168581e+001 2.761816e-001 6.820423e+001
3.210000e+009 5.144283e-001 -1.452438e+002 1.640707e+000 8.506157e+001 5.057029e-002 3.707293e+001 2.788098e-001 6.566371e+001
3.212500e+009 5.138147e-001 -1.458891e+002 1.635341e+000 8.253682e+001 4.982549e-002 3.570299e+001 2.801650e-001 6.367332e+001
3.215000e+009 5.136410e-001 -1.468463e+002 1.636782e+000 8.041786e+001 5.029238e-002 3.425240e+001 2.825458e-001 6.154967e+001
3.217500e+009 5.120636e-001 -1.474530e+002 1.633444e+000 7.792953e+001 5.064244e-002 3.026927e+001 2.871745e-001 5.947556e+001
3.220000e+009 5.091673e-001 -1.483002e+002 1.628950e+000 7.566773e+001 4.852057e-002 3.180775e+001 2.882316e-001 5.703854e+001
3.222500e+009 5.092436e-001 -1.491589e+002 1.627448e+000 7.347284e+001 4.841283e-002 2.616917e+001 2.920743e-001 5.489209e+001
3.225000e+009 5.083973e-001 -1.500359e+002 1.621429e+000 7.110091e+001 4.885044e-002 2.409700e+001 2.941105e-001 5.275494e+001
3.227500e+009 5.049701e-001 -1.504814e+002 1.619408e+000 6.896963e+001 4.944287e-002 2.170846e+001 2.960540e-001 5.050890e+001
3.230000e+009 5.005958e-001 -1.512841e+002 1.609867e+000 6.717094e+001 4.836629e-002 2.061907e+001 2.976405e-001 4.828579e+001
3.232500e+009 5.014431e-001 -1.520089e+002 1.608188e+000 6.507706e+001 4.947292e-002 1.836300e+001 2.984816e-001 4.571469e+001
3.235000e+009 4.951201e-001 -1.525195e+002 1.601582e+000 6.318988e+001 4.904403e-002 1.722609e+001 2.993531e-001 4.340651e+001
3.237500e+009 4.920706e-001 -1.533670e+002 1.603907e+000 6.142228e+001 4.875598e-002 1.449821e+001 3.003058e-001 4.120006e+001
3.240000e+009 4.913721e-001 -1.536352e+002 1.602814e+000 5.950492e+001 4.836404e-002 1.420955e+001 3.018768e-001 3.902803e+001
3.242500e+009 4.855439e-001 -1.546046e+002 1.601472e+000 5.756251e+001 5.028061e-002 1.142164e+001 3.032156e-001 3.646994e+001
3.245000e+009 4.839995e-001 -1.552288e+002 1.612121e+000 5.592772e+001 5.144960e-002 9.958632e+000 3.026713e-001 3.430776e+001
3.247500e+009 4.787589e-001 -1.561236e+002 1.612855e+000 5.404712e+001 5.197755e-002 5.831594e+000 3.054154e-001 3.157677e+001
3.250000e+009 4.735818e-001 -1.563581e+002 1.622491e+000 5.211804e+001 4.925868e-002 4.022550e+000 3.048117e-001 2.928203e+001
3.252500e+009 4.752790e-001 -1.570659e+002 1.626517e+000 5.017049e+001 5.301229e-002 5.586775e+000 3.074510e-001 2.719563e+001
3.255000e+009 4.718353e-001 -1.575480e+002 1.632488e+000 4.819255e+001 5.217206e-002 4.597345e+000 3.054551e-001 2.464342e+001
3.257500e+009 4.703685e-001 -1.582320e+002 1.649623e+000 4.605829e+001 5.189814e-002 -1.228860e+000 3.041481e-001 2.227127e+001
3.260000e+009 4.647064e-001 -1.588755e+002 1.658113e+000 4.386072e+001 5.103621e-002 -8.189620e-001 3.047934e-001 2.009149e+001
3.262500e+009 4.641944e-001 -1.595437e+002 1.662428e+000 4.191567e+001 5.223880e-002 -2.284216e+000 3.050773e-001 1.765901e+001
3.265000e+009 4.604999e-001 -1.602917e+002 1.671250e+000 3.965337e+001 5.394518e-002 -4.226659e+000 3.072684e-001 1.541595e+001
3.267500e+009 4.603079e-001 -1.608536e+002 1.672357e+000 3.745391e+001 5.357112e-002 -6.917352e+000 3.075430e-001 1.300987e+001
3.270000e+009 4.577481e-001 -1.620417e+002 1.679324e+000 3.541963e+001 5.285858e-002 -1.224673e+001 3.076368e-001 1.120796e+001
3.272500e+009 4.527225e-001 -1.626812e+002 1.682233e+000 3.309256e+001 5.146718e-002 -1.130467e+001 3.086890e-001 8.976329e+000
3.275000e+009 4.512508e-001 -1.632293e+002 1.683152e+000 3.088450e+001 5.279269e-002 -1.310091e+001 3.106545e-001 6.612112e+000
3.277500e+009 4.482047e-001 -1.643791e+002 1.680982e+000 2.866766e+001 5.325841e-002 -1.693871e+001 3.102002e-001 4.694880e+000
3.280000e+009 4.448358e-001 -1.651378e+002 1.683536e+000 2.646155e+001 5.176821e-002 -2.110679e+001 3.114756e-001 2.686603e+000
3.282500e+009 4.417650e-001 -1.660663e+002 1.678582e+000 2.444824e+001 5.528956e-002 -2.235067e+001 3.126461e-001 3.494206e-001
3.285000e+009 4.394017e-001 -1.671766e+002 1.677565e+000 2.223563e+001 5.532539e-002 -2.318395e+001 3.129443e-001 -1.894285e+000
3.287500e+009 4.361197e-001 -1.680945e+002 1.677074e+000 2.030852e+001 5.326954e-002 -2.350516e+001 3.142687e-001 -3.593758e+000
3.290000e+009 4.331822e-001 -1.687321e+002 1.674909e+000 1.832935e+001 5.264737e-002 -2.630353e+001 3.149521e-001 -6.002336e+000
3.292500e+009 4.296973e-001 -1.697294e+002 1.674132e+000 1.641832e+001 5.267555e-002 -2.816569e+001 3.160394e-001 -8.273635e+000
3.295000e+009 4.246030e-001 -1.704870e+002 1.671145e+000 1.462496e+001 5.565001e-002 -3.048288e+001 3.162371e-001 -1.026402e+001
3.297500e+009 4.218765e-001 -1.713488e+002 1.674139e+000 1.271441e+001 5.283178e-002 -3.141089e+001 3.163963e-001 -1.262533e+001
3.300000e+009 4.158372e-001 -1.721375e+002 1.672519e+000 1.084509e+001 5.362203e-002 -3.293014e+001 3.158979e-001 -1.405299e+001
3.302500e+009 4.161673e-001 -1.725903e+002 1.675701e+000 9.037066e+000 5.227513e-002 -3.582317e+001 3.147224e-001 -1.637105e+001
3.305000e+009 4.126419e-001 -1.736808e+002 1.683365e+000 7.344137e+000 5.237023e-002 -3.845360e+001 3.155317e-001 -1.850951e+001
3.307500e+009 4.071423e-001 -1.748504e+002 1.690445e+000 5.393075e+000 5.519158e-002 -3.854110e+001 3.136921e-001 -2.028168e+001
3.310000e+009 4.036714e-001 -1.749392e+002 1.694393e+000 3.556866e+000 5.603087e-002 -4.142100e+001 3.117885e-001 -2.168135e+001
3.312500e+009 3.998370e-001 -1.760273e+002 1.707996e+000 1.668719e+000 5.482760e-002 -4.023237e+001 3.136076e-001 -2.347195e+001
3.315000e+009 3.953700e-001 -1.765747e+002 1.713308e+000 -2.721799e-001 5.530507e-002 -4.525543e+001 3.123187e-001 -2.490148e+001
3.317500e+009 3.932444e-001 -1.770336e+002 1.721857e+000 -2.017296e+000 5.768002e-002 -4.607565e+001 3.115405e-001 -2.676121e+001
3.320000e+009 3.885058e-001 -1.776974e+002 1.731505e+000 -4.177639e+000 5.716217e-002 -4.748549e+001 3.096856e-001 -2.875867e+001
3.322500e+009 3.847170e-001 -1.784208e+002 1.738716e+000 -6.173907e+000 5.708695e-002 -5.026912e+001 3.096484e-001 -3.003519e+001
3.325000e+009 3.816417e-001 -1.792113e+002 1.753974e+000 -8.481548e+000 5.806934e-002 -5.289854e+001 3.075590e-001 -3.196539e+001
3.327500e+009 3.829710e-001 -1.797782e+002 1.753791e+000 -1.054334e+001 5.796580e-002 -5.419834e+001 3.059159e-001 -3.372886e+001
3.330000e+009 3.768244e-001 1.796033e+002 1.762031e+000 -1.279888e+001 5.722584e-002 -5.625062e+001 3.055009e-001 -3.523983e+001
3.332500e+009 3.727739e-001 1.789184e+002 1.764688e+000 -1.500648e+001 5.945608e-002 -5.868704e+001 3.042391e-001 -3.707467e+001
3.335000e+009 3.716491e-001 1.783372e+002 1.772294e+000 -1.704589e+001 5.764557e-002 -6.029179e+001 3.017465e-001 -3.905693e+001
3.337500e+009 3.660541e-001 1.774359e+002 1.779394e+000 -1.916288e+001 5.865010e-002 -6.107676e+001 2.991589e-001 -4.088181e+001
3.340000e+009 3.668762e-001 1.765870e+002 1.774862e+000 -2.147944e+001 5.951566e-002 -6.478690e+001 2.989364e-001 -4.265213e+001
3.342500e+009 3.592055e-001 1.762941e+002 1.777294e+000 -2.346808e+001 5.968213e-002 -6.701257e+001 2.966626e-001 -4.438997e+001
3.345000e+009 3.541686e-001 1.750562e+002 1.776222e+000 -2.543660e+001 5.871124e-002 -6.997047e+001 2.932881e-001 -4.659295e+001
3.347500e+009 3.494354e-001 1.743633e+002 1.770833e+000 -2.746962e+001 5.898177e-002 -7.217271e+001 2.915133e-001 -4.843139e+001
3.350000e+009 3.443378e-001 1.734915e+002 1.772631e+000 -2.944855e+001 6.079764e-002 -7.325982e+001 2.890837e-001 -5.063205e+001
3.352500e+009 3.396759e-001 1.729255e+002 1.778098e+000 -3.127253e+001 6.073642e-002 -7.408558e+001 2.847170e-001 -5.251045e+001
3.355000e+009 3.324005e-001 1.722161e+002 1.767908e+000 -3.339117e+001 6.033419e-002 -7.652068e+001 2.796022e-001 -5.469258e+001
3.357500e+009 3.270348e-001 1.710639e+002 1.774339e+000 -3.519800e+001 5.922892e-002 -7.884821e+001 2.755056e-001 -5.689579e+001
3.360000e+009 3.228061e-001 1.706289e+002 1.775316e+000 -3.723471e+001 5.929229e-002 -7.957688e+001 2.710527e-001 -5.901139e+001
3.362500e+009 3.152775e-001 1.697729e+002 1.777721e+000 -3.917892e+001 6.074841e-002 -8.208405e+001 2.678192e-001 -6.064354e+001
3.365000e+009 3.100357e-001 1.686990e+002 1.783163e+000 -4.101191e+001 5.949834e-002 -8.265881e+001 2.619639e-001 -6.290460e+001
3.367500e+009 3.024506e-001 1.683580e+002 1.789900e+000 -4.290289e+001 6.244491e-002 -8.481445e+001 2.585211e-001 -6.476633e+001
3.370000e+009 2.975022e-001 1.672180e+002 1.794115e+000 -4.471282e+001 6.168998e-002 -8.640707e+001 2.549290e-001 -6.656590e+001
3.372500e+009 2.905611e-001 1.671328e+002 1.798214e+000 -4.676447e+001 6.125565e-002 -8.962914e+001 2.496459e-001 -6.828689e+001
3.375000e+009 2.861183e-001 1.664345e+002 1.805556e+000 -4.876597e+001 6.274576e-002 -9.236731e+001 2.441963e-001 -7.063140e+001
3.377500e+009 2.826837e-001 1.658656e+002 1.811463e+000 -5.062089e+001 6.300383e-002 -9.467487e+001 2.442034e-001 -7.296232e+001
