!Agilent Technologies,E8358A,US40260201,A.04.06
!Agilent E8358A: A.04.06
!Date: Saturday, February 25, 2012 17:49:52
!Correction: S11(Full 2 Port SOLT,1,2) S21(Full 2 Port SOLT,1,2) S12(Full 2 Port SOLT,1,2) S22(Full 2 Port SOLT,1,2) 
!S2P File: Measurements: S11, S21, S12, S22:
# Hz S  MA   R 50
3.000000e+009 1.403718e-001 -1.269139e+002 2.900580e+001 -1.598802e+002 3.205403e-003 1.218857e+002 4.349365e-001 -6.283784e+001
3.002500e+009 1.395404e-001 -1.252315e+002 2.852805e+001 -1.618745e+002 5.120635e-003 -9.326334e+001 4.317314e-001 -6.754681e+001
3.005000e+009 1.414088e-001 -1.287878e+002 2.879033e+001 -1.621546e+002 4.877708e-003 -1.093934e+002 4.346418e-001 -6.983308e+001
3.007500e+009 1.396226e-001 -1.268057e+002 2.893737e+001 -1.637593e+002 1.407124e-003 -2.258658e+001 4.214303e-001 -6.879600e+001
3.010000e+009 1.350000e-001 -1.279435e+002 2.852964e+001 -1.651533e+002 2.741813e-003 1.429199e+001 4.504516e-001 -7.158315e+001
3.012500e+009 1.449372e-001 -1.298324e+002 2.894536e+001 -1.658823e+002 4.584829e-003 1.370909e+002 4.286242e-001 -7.116602e+001
3.015000e+009 1.500699e-001 -1.294844e+002 2.851240e+001 -1.678374e+002 4.953279e-003 1.631942e+002 4.193103e-001 -7.514434e+001
3.017500e+009 1.456559e-001 -1.286433e+002 2.871889e+001 -1.687590e+002 3.955333e-003 1.405276e+002 4.244777e-001 -7.615851e+001
3.020000e+009 1.524144e-001 -1.309992e+002 2.896413e+001 -1.703978e+002 3.922149e-003 1.392830e+002 4.230157e-001 -7.964381e+001
3.022500e+009 1.459094e-001 -1.307862e+002 2.874360e+001 -1.716495e+002 1.028385e-003 8.446222e+001 4.226904e-001 -7.998880e+001
3.025000e+009 1.530970e-001 -1.322524e+002 2.877113e+001 -1.729312e+002 3.609172e-003 1.058111e+002 4.270452e-001 -8.225966e+001
3.027500e+009 1.655194e-001 -1.344740e+002 2.879625e+001 -1.737981e+002 7.678715e-003 1.304636e+002 4.214818e-001 -8.538496e+001
3.030000e+009 1.478449e-001 -1.344074e+002 2.850125e+001 -1.753902e+002 7.392988e-003 7.362653e+001 4.306601e-001 -8.758692e+001
3.032500e+009 1.449611e-001 -1.367747e+002 2.846657e+001 -1.766721e+002 7.178855e-003 8.300227e+001 4.191902e-001 -8.940079e+001
3.035000e+009 1.672517e-001 -1.353505e+002 2.847752e+001 -1.782563e+002 8.695074e-003 1.538024e+002 4.216338e-001 -8.906278e+001
3.037500e+009 1.437524e-001 -1.409318e+002 2.848547e+001 -1.793239e+002 8.640445e-003 8.602004e+001 4.341401e-001 -9.321403e+001
3.040000e+009 1.541035e-001 -1.420004e+002 2.828589e+001 1.791342e+002 6.497034e-003 9.921768e+001 4.244170e-001 -9.507642e+001
3.042500e+009 1.454132e-001 -1.356582e+002 2.866423e+001 1.777530e+002 4.960961e-003 3.899231e+001 4.089426e-001 -9.771080e+001
3.045000e+009 1.493088e-001 -1.354268e+002 2.832293e+001 1.769445e+002 3.665121e-003 9.608877e+001 4.160807e-001 -9.850228e+001
3.047500e+009 1.386293e-001 -1.330109e+002 2.868304e+001 1.754386e+002 3.353541e-003 5.069877e+001 4.273909e-001 -1.008044e+002
3.050000e+009 1.509104e-001 -1.374803e+002 2.822527e+001 1.738504e+002 2.938539e-003 6.472149e+001 4.112751e-001 -1.027920e+002
3.052500e+009 1.575260e-001 -1.363705e+002 2.834667e+001 1.722828e+002 4.373092e-004 -9.788592e+001 3.992483e-001 -1.051136e+002
3.055000e+009 1.575686e-001 -1.355189e+002 2.830813e+001 1.720885e+002 1.019120e-003 -3.197781e+001 4.157656e-001 -1.078475e+002
3.057500e+009 1.669409e-001 -1.391938e+002 2.854899e+001 1.702650e+002 2.643374e-003 -1.571290e+002 3.990213e-001 -1.091734e+002
3.060000e+009 1.563244e-001 -1.337464e+002 2.808714e+001 1.692209e+002 3.856760e-003 -3.043665e+001 4.131664e-001 -1.098794e+002
3.062500e+009 1.606687e-001 -1.310451e+002 2.807955e+001 1.679628e+002 5.503953e-003 -4.681550e+001 4.105303e-001 -1.131195e+002
3.065000e+009 1.331504e-001 -1.424805e+002 2.783032e+001 1.666720e+002 8.252403e-003 7.763891e+001 4.001046e-001 -1.167234e+002
3.067500e+009 1.589358e-001 -1.411546e+002 2.846789e+001 1.650473e+002 3.679371e-003 1.790523e+002 4.206981e-001 -1.172174e+002
3.070000e+009 1.573996e-001 -1.392429e+002 2.786358e+001 1.633020e+002 1.598421e-003 -5.495372e+001 3.987214e-001 -1.193689e+002
3.072500e+009 1.596245e-001 -1.402034e+002 2.814985e+001 1.619551e+002 2.394029e-003 3.337092e+001 4.124260e-001 -1.227988e+002
3.075000e+009 1.507711e-001 -1.375456e+002 2.800230e+001 1.610111e+002 5.321297e-003 4.929107e+001 3.900287e-001 -1.250774e+002
3.077500e+009 1.716466e-001 -1.372566e+002 2.808343e+001 1.599126e+002 3.452584e-003 -5.180504e+001 4.200676e-001 -1.259562e+002
3.080000e+009 1.289120e-001 -1.374646e+002 2.801986e+001 1.583579e+002 1.243530e-002 5.937693e+001 3.917653e-001 -1.276617e+002
3.082500e+009 1.329399e-001 -1.369190e+002 2.801232e+001 1.569537e+002 8.773744e-003 5.255199e+001 3.952018e-001 -1.327833e+002
3.085000e+009 1.300337e-001 -1.478498e+002 2.787586e+001 1.558624e+002 9.223182e-003 1.217255e+002 4.034470e-001 -1.349405e+002
3.087500e+009 1.271929e-001 -1.349380e+002 2.827731e+001 1.536674e+002 1.236042e-002 7.570896e+001 3.849249e-001 -1.358752e+002
3.090000e+009 1.452939e-001 -1.373582e+002 2.824911e+001 1.529358e+002 6.165744e-003 4.673079e+001 4.085535e-001 -1.383565e+002
3.092500e+009 1.417030e-001 -1.325235e+002 2.818724e+001 1.521327e+002 9.149682e-003 4.817364e+001 3.970909e-001 -1.402600e+002
3.095000e+009 1.619413e-001 -1.471567e+002 2.776850e+001 1.494767e+002 6.227996e-004 -1.289732e+002 4.105504e-001 -1.435802e+002
3.097500e+009 1.515478e-001 -1.535290e+002 2.789116e+001 1.486293e+002 7.655893e-003 -1.699201e+002 4.083718e-001 -1.470698e+002
3.100000e+009 1.336631e-001 -1.442282e+002 2.785152e+001 1.474258e+002 5.918565e-003 1.043734e+002 3.892061e-001 -1.495490e+002
3.102500e+009 1.616263e-001 -1.475330e+002 2.806162e+001 1.456907e+002 8.194921e-004 -1.399488e+002 4.051885e-001 -1.494936e+002
3.105000e+009 1.319659e-001 -1.379476e+002 2.769388e+001 1.444790e+002 1.024831e-002 9.185622e+001 3.722716e-001 -1.523002e+002
3.107500e+009 1.651340e-001 -1.481480e+002 2.780754e+001 1.434129e+002 3.030245e-003 -2.206822e+001 4.009353e-001 -1.543169e+002
3.110000e+009 1.524652e-001 -1.440349e+002 2.786518e+001 1.419970e+002 3.909532e-003 5.511362e+001 3.940395e-001 -1.558834e+002
3.112500e+009 1.434376e-001 -1.506946e+002 2.751793e+001 1.404760e+002 3.566048e-003 1.714301e+002 3.995176e-001 -1.617055e+002
3.115000e+009 1.452772e-001 -1.420460e+002 2.760302e+001 1.397215e+002 5.444782e-003 8.716563e+001 3.738107e-001 -1.625998e+002
3.117500e+009 1.602127e-001 -1.401629e+002 2.765973e+001 1.373882e+002 8.591835e-003 4.758072e+001 3.905971e-001 -1.638625e+002
3.120000e+009 1.539759e-001 -1.490969e+002 2.746368e+001 1.361544e+002 1.211451e-003 1.520054e+002 3.864385e-001 -1.693857e+002
3.122500e+009 1.446921e-001 -1.521679e+002 2.765343e+001 1.351167e+002 5.591665e-003 1.660662e+002 3.814663e-001 -1.717341e+002
3.125000e+009 1.729660e-001 -1.461660e+002 2.744460e+001 1.330717e+002 3.855137e-003 3.649774e+001 4.020751e-001 -1.721066e+002
3.127500e+009 1.639969e-001 -1.488710e+002 2.759341e+001 1.323251e+002 5.317681e-003 1.654992e+001 4.061047e-001 -1.738210e+002
3.130000e+009 1.434670e-001 -1.525439e+002 2.738613e+001 1.308364e+002 3.753990e-003 -1.421269e+002 3.829350e-001 -1.779193e+002
3.132500e+009 1.685849e-001 -1.492732e+002 2.701253e+001 1.293931e+002 4.675543e-003 -1.785990e+000 3.996476e-001 -1.798569e+002
3.135000e+009 1.638005e-001 -1.457008e+002 2.716253e+001 1.279557e+002 5.599314e-003 6.277393e+001 4.063817e-001 1.788896e+002
3.137500e+009 1.714480e-001 -1.479779e+002 2.735248e+001 1.274964e+002 6.478934e-003 5.408238e+001 4.063709e-001 1.764283e+002
3.140000e+009 1.862105e-001 -1.495995e+002 2.741058e+001 1.251899e+002 7.544503e-003 2.702785e+001 4.094034e-001 1.742686e+002
3.142500e+009 1.572066e-001 -1.524518e+002 2.712763e+001 1.236187e+002 2.405166e-003 -1.672332e+002 3.921933e-001 1.707186e+002
3.145000e+009 1.593045e-001 -1.471825e+002 2.711328e+001 1.226377e+002 3.536182e-003 8.872181e+001 4.006714e-001 1.699726e+002
3.147500e+009 1.832696e-001 -1.477195e+002 2.703608e+001 1.211834e+002 7.904519e-003 6.541432e+001 3.990147e-001 1.663238e+002
3.150000e+009 1.865770e-001 -1.486233e+002 2.690488e+001 1.200009e+002 7.483316e-003 6.429417e+001 3.974621e-001 1.640629e+002
3.152500e+009 1.610164e-001 -1.494397e+002 2.692311e+001 1.185745e+002 3.453808e-003 5.260206e+001 3.989318e-001 1.591149e+002
3.155000e+009 1.718155e-001 -1.535087e+002 2.691019e+001 1.171469e+002 6.038159e-003 4.877013e+000 3.989182e-001 1.578451e+002
3.157500e+009 1.623680e-001 -1.543435e+002 2.699784e+001 1.157410e+002 2.271770e-003 2.122581e+001 3.967414e-001 1.561579e+002
3.160000e+009 1.671945e-001 -1.557779e+002 2.692920e+001 1.146083e+002 7.496060e-003 4.038862e+000 4.041527e-001 1.527849e+002
3.162500e+009 1.835308e-001 -1.508208e+002 2.660393e+001 1.136135e+002 7.053627e-003 7.458202e+001 4.130091e-001 1.527278e+002
3.165000e+009 1.647737e-001 -1.545981e+002 2.668517e+001 1.118178e+002 3.815266e-003 3.684420e+001 3.992448e-001 1.488783e+002
3.167500e+009 1.618003e-001 -1.514410e+002 2.645337e+001 1.106217e+002 4.667308e-003 -1.743016e+001 3.895180e-001 1.434201e+002
3.170000e+009 1.857585e-001 -1.538639e+002 2.668978e+001 1.095175e+002 6.852021e-003 7.742469e+001 4.188098e-001 1.445439e+002
3.172500e+009 1.811306e-001 -1.546517e+002 2.652296e+001 1.078191e+002 2.713281e-003 8.270885e+001 3.971646e-001 1.429275e+002
3.175000e+009 1.731771e-001 -1.526810e+002 2.651565e+001 1.057606e+002 2.771562e-003 -5.731572e+001 4.033608e-001 1.398772e+002
3.177500e+009 1.777581e-001 -1.543115e+002 2.655453e+001 1.052570e+002 1.435604e-003 6.362431e+001 3.995359e-001 1.377677e+002
3.180000e+009 1.772159e-001 -1.565621e+002 2.639699e+001 1.030959e+002 4.451303e-003 5.099918e+001 4.159187e-001 1.349427e+002
3.182500e+009 1.692448e-001 -1.616725e+002 2.605900e+001 1.026264e+002 9.536157e-003 5.140318e+001 4.165761e-001 1.318903e+002
3.185000e+009 1.781110e-001 -1.537563e+002 2.623189e+001 1.007558e+002 2.969158e-003 -1.732747e+002 4.132432e-001 1.327466e+002
3.187500e+009 1.721798e-001 -1.581549e+002 2.624399e+001 9.905627e+001 3.025411e-003 1.697148e+001 4.148922e-001 1.286602e+002
3.190000e+009 1.858888e-001 -1.597238e+002 2.587866e+001 9.775624e+001 4.883924e-003 1.204183e+002 4.263941e-001 1.245867e+002
3.192500e+009 1.975767e-001 -1.552520e+002 2.610559e+001 9.679176e+001 7.063954e-003 -1.651940e+002 4.482694e-001 1.238158e+002
3.195000e+009 1.757755e-001 -1.517676e+002 2.598464e+001 9.475737e+001 8.247643e-003 -5.086207e+001 4.223413e-001 1.225871e+002
3.197500e+009 2.013882e-001 -1.560931e+002 2.578043e+001 9.399769e+001 4.123052e-003 -1.373508e+002 4.162577e-001 1.193805e+002
3.200000e+009 1.808977e-001 -1.580893e+002 2.588998e+001 9.300658e+001 4.148622e-003 5.069384e+001 4.142088e-001 1.147505e+002
3.202500e+009 1.914294e-001 -1.585661e+002 2.518267e+001 9.228770e+001 2.905934e-003 -7.476709e+001 4.328935e-001 1.178937e+002
3.205000e+009 1.797761e-001 -1.613828e+002 2.549301e+001 8.989928e+001 2.547062e-003 -5.016256e+000 4.249495e-001 1.121408e+002
3.207500e+009 1.843614e-001 -1.589978e+002 2.528772e+001 8.894216e+001 5.865183e-003 -3.468276e+000 4.263656e-001 1.107222e+002
3.210000e+009 1.714546e-001 -1.553536e+002 2.529642e+001 8.757885e+001 9.638811e-003 -3.180290e+000 4.219676e-001 1.109752e+002
3.212500e+009 1.798338e-001 -1.615449e+002 2.533086e+001 8.582207e+001 4.572276e-003 -3.019230e+001 4.341654e-001 1.077817e+002
3.215000e+009 1.874206e-001 -1.642958e+002 2.521934e+001 8.404828e+001 1.017815e-003 -1.784551e+002 4.472021e-001 1.025225e+002
3.217500e+009 1.677762e-001 -1.565900e+002 2.516331e+001 8.358877e+001 5.340667e-003 8.287097e+000 4.340333e-001 1.022484e+002
3.220000e+009 1.991948e-001 -1.586492e+002 2.506817e+001 8.262438e+001 7.668748e-003 -4.972509e+001 4.428839e-001 1.034210e+002
3.222500e+009 1.685553e-001 -1.623780e+002 2.485474e+001 8.109938e+001 5.777561e-003 6.615948e+001 4.198356e-001 9.776459e+001
3.225000e+009 1.771711e-001 -1.566094e+002 2.494993e+001 8.014046e+001 1.044749e-002 1.514541e+001 4.343554e-001 9.893389e+001
3.227500e+009 1.947633e-001 -1.628282e+002 2.513318e+001 7.840292e+001 3.352743e-003 -5.696157e+001 4.549880e-001 9.429649e+001
3.230000e+009 1.922314e-001 -1.612471e+002 2.500291e+001 7.715954e+001 2.554907e-003 -4.387281e+001 4.513747e-001 9.134161e+001
3.232500e+009 1.689766e-001 -1.735373e+002 2.480445e+001 7.604402e+001 6.465749e-003 1.728909e+002 4.511589e-001 8.766939e+001
3.235000e+009 1.604766e-001 -1.683903e+002 2.449790e+001 7.418024e+001 4.906843e-003 1.254389e+002 4.429247e-001 8.851277e+001
3.237500e+009 1.509278e-001 -1.649702e+002 2.464611e+001 7.301494e+001 7.699840e-003 1.059533e+002 4.277350e-001 8.594420e+001
3.240000e+009 1.970472e-001 -1.620688e+002 2.458085e+001 7.241219e+001 5.292414e-003 -4.392550e+001 4.647393e-001 8.484424e+001
3.242500e+009 1.849466e-001 -1.509269e+002 2.428730e+001 7.093332e+001 1.160069e-002 4.498837e+001 4.463432e-001 8.540513e+001
3.245000e+009 1.830373e-001 -1.653048e+002 2.437899e+001 6.932175e+001 1.553355e-003 -5.126675e+001 4.582542e-001 7.976997e+001
3.247500e+009 1.600526e-001 -1.643943e+002 2.442906e+001 6.782919e+001 5.036989e-003 1.083445e+002 4.489018e-001 7.971700e+001
3.250000e+009 2.009512e-001 -1.713721e+002 2.419800e+001 6.640697e+001 4.339066e-003 -5.131785e+001 4.883244e-001 7.498679e+001
3.252500e+009 2.110293e-001 -1.666829e+002 2.413832e+001 6.507552e+001 6.378659e-003 -2.511933e+001 4.825201e-001 7.606198e+001
3.255000e+009 1.886210e-001 -1.706268e+002 2.407788e+001 6.413154e+001 3.254415e-003 -6.657764e+001 4.871995e-001 7.273531e+001
3.257500e+009 2.157383e-001 -1.599994e+002 2.400352e+001 6.322403e+001 7.982219e-003 2.757106e+001 4.825430e-001 7.310654e+001
3.260000e+009 2.111321e-001 -1.630661e+002 2.414635e+001 6.137575e+001 5.265116e-003 2.132876e+001 4.797302e-001 7.078954e+001
3.262500e+009 1.819636e-001 -1.627153e+002 2.429585e+001 6.021355e+001 3.679681e-003 8.611971e+001 4.756302e-001 6.923647e+001
3.265000e+009 2.293246e-001 -1.757290e+002 2.388478e+001 5.876181e+001 1.012491e-002 -3.291500e+001 5.040089e-001 6.386020e+001
3.267500e+009 1.851336e-001 -1.749298e+002 2.383557e+001 5.758235e+001 5.681068e-003 -9.209377e+001 4.873663e-001 6.102153e+001
3.270000e+009 1.984398e-001 -1.726996e+002 2.406563e+001 5.566312e+001 4.609074e-003 -4.907140e+001 4.984958e-001 6.137215e+001
3.272500e+009 1.782998e-001 -1.721422e+002 2.359385e+001 5.550050e+001 3.324839e-003 -8.681226e+001 4.861485e-001 5.977481e+001
3.275000e+009 1.649942e-001 -1.733844e+002 2.353626e+001 5.367832e+001 5.925722e-003 -1.169879e+002 4.786329e-001 5.774013e+001
3.277500e+009 2.057938e-001 -1.663759e+002 2.350382e+001 5.289996e+001 1.988158e-003 4.793565e+001 5.156758e-001 5.663057e+001
3.280000e+009 2.250479e-001 -1.691291e+002 2.341529e+001 5.225681e+001 6.003435e-003 3.368740e+001 4.975726e-001 5.525360e+001
3.282500e+009 1.812333e-001 -1.734332e+002 2.336770e+001 4.902320e+001 5.816326e-003 -9.084704e+001 4.917143e-001 5.206685e+001
3.285000e+009 2.129561e-001 -1.748140e+002 2.358896e+001 4.843109e+001 5.429204e-003 -2.532673e+001 4.995170e-001 5.076046e+001
3.287500e+009 1.782482e-001 -1.779175e+002 2.340852e+001 4.728507e+001 9.298193e-003 -6.156653e+001 4.902279e-001 4.833656e+001
3.290000e+009 2.257898e-001 -1.770763e+002 2.338354e+001 4.607119e+001 6.793819e-003 2.038647e+000 5.055093e-001 4.596313e+001
3.292500e+009 2.211423e-001 -1.746029e+002 2.298806e+001 4.434447e+001 2.673727e-003 2.195285e+001 5.174854e-001 4.413860e+001
3.295000e+009 1.771044e-001 -1.669812e+002 2.300807e+001 4.394256e+001 7.732858e-003 -1.260177e+002 5.167863e-001 4.524812e+001
3.297500e+009 1.968813e-001 -1.752850e+002 2.319905e+001 4.235738e+001 4.482436e-003 -5.402161e+001 5.215221e-001 4.208500e+001
3.300000e+009 2.447704e-001 -1.771186e+002 2.303515e+001 4.180165e+001 8.012624e-003 6.687666e+001 5.251173e-001 3.841984e+001
3.302500e+009 1.817316e-001 -1.789452e+002 2.303924e+001 4.041756e+001 6.136230e-003 -5.420218e+001 5.215535e-001 3.917306e+001
3.305000e+009 2.241883e-001 -1.730486e+002 2.289346e+001 3.921383e+001 4.140837e-003 1.629215e+002 5.265449e-001 3.525773e+001
3.307500e+009 2.012300e-001 -1.696755e+002 2.269719e+001 3.784576e+001 6.706403e-003 -1.331527e+002 5.366871e-001 3.448595e+001
3.310000e+009 1.963861e-001 -1.734835e+002 2.308952e+001 3.608232e+001 3.064922e-003 -9.392840e+001 5.320320e-001 3.309756e+001
3.312500e+009 2.151771e-001 -1.756225e+002 2.277603e+001 3.512379e+001 2.265143e-003 1.764917e+002 5.241039e-001 3.018796e+001
3.315000e+009 2.075783e-001 -1.768785e+002 2.270568e+001 3.381058e+001 1.204031e-003 -9.643550e+001 5.294355e-001 2.938930e+001
3.317500e+009 2.019032e-001 -1.799254e+002 2.276435e+001 3.244017e+001 4.728271e-003 -2.014778e+001 5.298945e-001 2.857700e+001
3.320000e+009 2.130862e-001 -1.748113e+002 2.237506e+001 3.190232e+001 6.395386e-003 -1.327939e+002 5.441706e-001 2.543871e+001
3.322500e+009 1.982733e-001 -1.796998e+002 2.255801e+001 3.050710e+001 4.135023e-003 -2.763823e+001 5.358709e-001 2.566025e+001
3.325000e+009 1.942622e-001 1.789755e+002 2.239924e+001 2.869593e+001 6.182658e-003 -4.191140e+001 5.116336e-001 2.314930e+001
3.327500e+009 1.990202e-001 -1.777174e+002 2.249665e+001 2.826294e+001 4.672186e-003 -7.707657e+001 5.362455e-001 2.024699e+001
3.330000e+009 2.179232e-001 1.790631e+002 2.206805e+001 2.559647e+001 2.105395e-003 -1.298161e+002 5.377902e-001 1.894029e+001
3.332500e+009 2.116662e-001 -1.796187e+002 2.208361e+001 2.456144e+001 3.058838e-003 -9.424709e+001 5.496612e-001 1.699942e+001
3.335000e+009 2.297987e-001 1.757979e+002 2.210863e+001 2.345727e+001 7.537653e-003 1.711655e+002 5.440058e-001 1.503135e+001
3.337500e+009 2.138482e-001 1.766109e+002 2.216894e+001 2.271448e+001 2.944193e-003 -1.702954e+002 5.375958e-001 1.318161e+001
3.340000e+009 2.078499e-001 1.792564e+002 2.245970e+001 2.134729e+001 2.655736e-003 -5.045462e+001 5.290164e-001 1.433757e+001
3.342500e+009 2.168313e-001 1.780247e+002 2.181824e+001 1.950486e+001 1.808714e-003 -5.357238e+000 5.287223e-001 1.067670e+001
3.345000e+009 2.173299e-001 -1.792522e+002 2.182311e+001 1.962654e+001 1.110809e-002 -4.957780e+001 5.440403e-001 9.576247e+000
3.347500e+009 2.165716e-001 1.762028e+002 2.227423e+001 1.799145e+001 3.094877e-003 -1.203512e+002 5.498348e-001 8.167324e+000
3.350000e+009 2.103756e-001 1.781812e+002 2.234282e+001 1.659809e+001 3.363855e-003 -7.101961e+001 5.489127e-001 6.796057e+000
3.352500e+009 2.140117e-001 1.764429e+002 2.160610e+001 1.501172e+001 1.442589e-003 -1.511477e+001 5.485988e-001 3.530582e+000
3.355000e+009 2.100707e-001 1.771753e+002 2.165469e+001 1.411968e+001 3.611654e-003 -1.647390e+000 5.398864e-001 3.166905e+000
3.357500e+009 2.202085e-001 1.766911e+002 2.178173e+001 1.326423e+001 7.463559e-003 -4.007617e+001 5.520924e-001 2.198710e+000
3.360000e+009 2.125598e-001 1.729846e+002 2.181818e+001 1.062618e+001 2.577639e-003 -1.187458e+002 5.521234e-001 -9.651833e-001
3.362500e+009 2.175653e-001 1.778853e+002 2.150626e+001 1.076125e+001 5.921275e-003 1.087606e+001 5.508505e-001 -2.194315e+000
3.365000e+009 2.062169e-001 1.722496e+002 2.187081e+001 9.630154e+000 3.174088e-003 -1.361954e+002 5.439230e-001 -3.306108e+000
3.367500e+009 1.978457e-001 1.748974e+002 2.160488e+001 7.686000e+000 2.903026e-003 7.460898e+001 5.553508e-001 -4.709016e+000
3.370000e+009 1.970695e-001 1.696650e+002 2.163276e+001 6.728656e+000 3.877590e-003 -1.761519e+002 5.473974e-001 -7.377619e+000
3.372500e+009 2.196230e-001 1.747664e+002 2.127264e+001 4.587978e+000 2.502114e-003 -1.520372e+001 5.547644e-001 -9.166562e+000
3.375000e+009 2.144005e-001 1.738881e+002 2.155932e+001 3.536915e+000 1.414435e-003 6.529745e+001 5.487011e-001 -1.072398e+001
3.377500e+009 2.042616e-001 1.699219e+002 2.144501e+001 3.377899e+000 5.922519e-003 -1.642628e+002 5.446081e-001 -1.305820e+001
