!Agilent Technologies,E8358A,US40260201,A.04.06
!Agilent E8358A: A.04.06
!Date: Saturday, February 25, 2012 14:04:05
!Correction: S11(Full 2 Port SOLT,1,2) S21(Full 2 Port SOLT,1,2) S12(Full 2 Port SOLT,1,2) S22(Full 2 Port SOLT,1,2) 
!S2P File: Measurements: S11, S21, S12, S22:
# Hz S  MA   R 50
3.000000e+009 1.216082e-001 9.186470e+001 9.395862e-001 8.568075e+000 9.376212e-001 8.437031e+000 1.175692e-001 9.198727e+001
3.002500e+009 1.218637e-001 9.189485e+001 9.396394e-001 8.219945e+000 9.375655e-001 8.019792e+000 1.187649e-001 9.160042e+001
3.005000e+009 1.222386e-001 9.077225e+001 9.408275e-001 7.996265e+000 9.367057e-001 7.796968e+000 1.192100e-001 9.150226e+001
3.007500e+009 1.213176e-001 9.040363e+001 9.400061e-001 7.687497e+000 9.367159e-001 7.550468e+000 1.186490e-001 9.075914e+001
3.010000e+009 1.213191e-001 9.043435e+001 9.408288e-001 7.302802e+000 9.381979e-001 7.188759e+000 1.199505e-001 9.128683e+001
3.012500e+009 1.220209e-001 9.025626e+001 9.394350e-001 7.038966e+000 9.380836e-001 6.903524e+000 1.202717e-001 9.042468e+001
3.015000e+009 1.216130e-001 8.950703e+001 9.394270e-001 6.672030e+000 9.384962e-001 6.626759e+000 1.192495e-001 8.969889e+001
3.017500e+009 1.219858e-001 8.929133e+001 9.395270e-001 6.407526e+000 9.368357e-001 6.330408e+000 1.206692e-001 8.994582e+001
3.020000e+009 1.226068e-001 8.837049e+001 9.407208e-001 6.182956e+000 9.376665e-001 6.008941e+000 1.197547e-001 8.965046e+001
3.022500e+009 1.202357e-001 8.841180e+001 9.418439e-001 5.821509e+000 9.371411e-001 5.689140e+000 1.209727e-001 8.977794e+001
3.025000e+009 1.217732e-001 8.801609e+001 9.412246e-001 5.636127e+000 9.382759e-001 5.479451e+000 1.203164e-001 8.961194e+001
3.027500e+009 1.211845e-001 8.770834e+001 9.395526e-001 5.256485e+000 9.385668e-001 5.142705e+000 1.214133e-001 8.911636e+001
3.030000e+009 1.204909e-001 8.754659e+001 9.403340e-001 4.903621e+000 9.375061e-001 4.844100e+000 1.200784e-001 8.905450e+001
3.032500e+009 1.208219e-001 8.731287e+001 9.398836e-001 4.621740e+000 9.374187e-001 4.545923e+000 1.211174e-001 8.895724e+001
3.035000e+009 1.206873e-001 8.686477e+001 9.397547e-001 4.394117e+000 9.385911e-001 4.285267e+000 1.198660e-001 8.903410e+001
3.037500e+009 1.212130e-001 8.706038e+001 9.396319e-001 4.048413e+000 9.393086e-001 4.028989e+000 1.197317e-001 8.860812e+001
3.040000e+009 1.198024e-001 8.680813e+001 9.413867e-001 3.741254e+000 9.373695e-001 3.667367e+000 1.212078e-001 8.858813e+001
3.042500e+009 1.203931e-001 8.638289e+001 9.401003e-001 3.438425e+000 9.382251e-001 3.416183e+000 1.198179e-001 8.783971e+001
3.045000e+009 1.198288e-001 8.647085e+001 9.401760e-001 3.244183e+000 9.367043e-001 3.018444e+000 1.202661e-001 8.785012e+001
3.047500e+009 1.200581e-001 8.647287e+001 9.409748e-001 2.829140e+000 9.382151e-001 2.815560e+000 1.194306e-001 8.723057e+001
3.050000e+009 1.200496e-001 8.567090e+001 9.411617e-001 2.617887e+000 9.376007e-001 2.539407e+000 1.192338e-001 8.723621e+001
3.052500e+009 1.198302e-001 8.608681e+001 9.406232e-001 2.264605e+000 9.378605e-001 2.231564e+000 1.190428e-001 8.708105e+001
3.055000e+009 1.191787e-001 8.593997e+001 9.404771e-001 1.938699e+000 9.380382e-001 1.899141e+000 1.185185e-001 8.668120e+001
3.057500e+009 1.188457e-001 8.538458e+001 9.393629e-001 1.696392e+000 9.377919e-001 1.665139e+000 1.191351e-001 8.645607e+001
3.060000e+009 1.197420e-001 8.567965e+001 9.401587e-001 1.410164e+000 9.376324e-001 1.292660e+000 1.179644e-001 8.608277e+001
3.062500e+009 1.187789e-001 8.547762e+001 9.397976e-001 1.097420e+000 9.369744e-001 1.086176e+000 1.169736e-001 8.614288e+001
3.065000e+009 1.185096e-001 8.494733e+001 9.414256e-001 7.412981e-001 9.378417e-001 6.971882e-001 1.171838e-001 8.601508e+001
3.067500e+009 1.176710e-001 8.481885e+001 9.404316e-001 5.194598e-001 9.371084e-001 4.962032e-001 1.164798e-001 8.501092e+001
3.070000e+009 1.176757e-001 8.431786e+001 9.389622e-001 2.153052e-001 9.365182e-001 2.248349e-001 1.157322e-001 8.457743e+001
3.072500e+009 1.161366e-001 8.451698e+001 9.400654e-001 -1.087434e-001 9.377580e-001 -1.550075e-001 1.140613e-001 8.424876e+001
3.075000e+009 1.165204e-001 8.479022e+001 9.402561e-001 -3.804807e-001 9.373537e-001 -3.288840e-001 1.155184e-001 8.336404e+001
3.077500e+009 1.160712e-001 8.440073e+001 9.409332e-001 -6.701627e-001 9.369804e-001 -7.624130e-001 1.143328e-001 8.395051e+001
3.080000e+009 1.154311e-001 8.314835e+001 9.401788e-001 -1.003013e+000 9.371138e-001 -9.940987e-001 1.142670e-001 8.340918e+001
3.082500e+009 1.142940e-001 8.327386e+001 9.406308e-001 -1.269931e+000 9.381595e-001 -1.240473e+000 1.125300e-001 8.261601e+001
3.085000e+009 1.144849e-001 8.324480e+001 9.408650e-001 -1.525703e+000 9.377927e-001 -1.526539e+000 1.129342e-001 8.252918e+001
3.087500e+009 1.128123e-001 8.375448e+001 9.415779e-001 -1.906449e+000 9.371002e-001 -1.867103e+000 1.122456e-001 8.213625e+001
3.090000e+009 1.132971e-001 8.371171e+001 9.410397e-001 -2.122301e+000 9.371953e-001 -2.125598e+000 1.109464e-001 8.157370e+001
3.092500e+009 1.118859e-001 8.296857e+001 9.407933e-001 -2.459320e+000 9.370840e-001 -2.487132e+000 1.109444e-001 8.113169e+001
3.095000e+009 1.117068e-001 8.269326e+001 9.402378e-001 -2.747121e+000 9.366536e-001 -2.806921e+000 1.094297e-001 8.027927e+001
3.097500e+009 1.118600e-001 8.225626e+001 9.400031e-001 -3.067885e+000 9.390027e-001 -3.033329e+000 1.099242e-001 7.994548e+001
3.100000e+009 1.110658e-001 8.253966e+001 9.410787e-001 -3.335229e+000 9.368267e-001 -3.302423e+000 1.085109e-001 7.973582e+001
3.102500e+009 1.099053e-001 8.223837e+001 9.403909e-001 -3.683980e+000 9.368554e-001 -3.563454e+000 1.082445e-001 7.917216e+001
3.105000e+009 1.084100e-001 8.159061e+001 9.414782e-001 -3.942954e+000 9.384912e-001 -3.900651e+000 1.058105e-001 7.864439e+001
3.107500e+009 1.089188e-001 8.088579e+001 9.401818e-001 -4.239055e+000 9.371413e-001 -4.114932e+000 1.071043e-001 7.813752e+001
3.110000e+009 1.078918e-001 8.141607e+001 9.396091e-001 -4.483518e+000 9.381062e-001 -4.491045e+000 1.054536e-001 7.789910e+001
3.112500e+009 1.088624e-001 8.135593e+001 9.413183e-001 -4.858208e+000 9.376121e-001 -4.780771e+000 1.048921e-001 7.725757e+001
3.115000e+009 1.070585e-001 8.094834e+001 9.398597e-001 -5.162706e+000 9.364694e-001 -5.086637e+000 1.052955e-001 7.673267e+001
3.117500e+009 1.068267e-001 8.067689e+001 9.405791e-001 -5.439228e+000 9.369445e-001 -5.454410e+000 1.048024e-001 7.662589e+001
3.120000e+009 1.068686e-001 8.148959e+001 9.391449e-001 -5.717077e+000 9.363658e-001 -5.694196e+000 1.060086e-001 7.634724e+001
3.122500e+009 1.079494e-001 8.072450e+001 9.403871e-001 -5.944237e+000 9.376110e-001 -5.970838e+000 1.050379e-001 7.526798e+001
3.125000e+009 1.077291e-001 8.017119e+001 9.395921e-001 -6.365578e+000 9.372638e-001 -6.253011e+000 1.044057e-001 7.535711e+001
3.127500e+009 1.066457e-001 8.048935e+001 9.394922e-001 -6.620775e+000 9.374658e-001 -6.542581e+000 1.043510e-001 7.443717e+001
3.130000e+009 1.066660e-001 8.051134e+001 9.408795e-001 -6.971404e+000 9.373025e-001 -6.905505e+000 1.043588e-001 7.424671e+001
3.132500e+009 1.071379e-001 8.073183e+001 9.396037e-001 -7.166469e+000 9.355796e-001 -7.163025e+000 1.051015e-001 7.318671e+001
3.135000e+009 1.083972e-001 8.010119e+001 9.396257e-001 -7.465792e+000 9.369720e-001 -7.496192e+000 1.048040e-001 7.317740e+001
3.137500e+009 1.085126e-001 8.038925e+001 9.383572e-001 -7.727261e+000 9.367784e-001 -7.760428e+000 1.040389e-001 7.267910e+001
3.140000e+009 1.080451e-001 7.979396e+001 9.407090e-001 -8.123202e+000 9.373374e-001 -8.110834e+000 1.046491e-001 7.230678e+001
3.142500e+009 1.078140e-001 8.042462e+001 9.388162e-001 -8.382276e+000 9.375967e-001 -8.382977e+000 1.037410e-001 7.160439e+001
3.145000e+009 1.079461e-001 7.989521e+001 9.391218e-001 -8.708377e+000 9.368576e-001 -8.627675e+000 1.045593e-001 7.187833e+001
3.147500e+009 1.093912e-001 7.993051e+001 9.375502e-001 -8.954464e+000 9.356102e-001 -9.019750e+000 1.049935e-001 7.055626e+001
3.150000e+009 1.094358e-001 7.881023e+001 9.392750e-001 -9.188728e+000 9.354156e-001 -9.265017e+000 1.057507e-001 7.049226e+001
3.152500e+009 1.100334e-001 7.887189e+001 9.397982e-001 -9.575643e+000 9.369866e-001 -9.450236e+000 1.049727e-001 6.992365e+001
3.155000e+009 1.097441e-001 7.875447e+001 9.389483e-001 -9.819277e+000 9.361697e-001 -9.809472e+000 1.050680e-001 6.980207e+001
3.157500e+009 1.104093e-001 7.858366e+001 9.394634e-001 -1.015012e+001 9.363816e-001 -1.014171e+001 1.055150e-001 6.916781e+001
3.160000e+009 1.110280e-001 7.854475e+001 9.386415e-001 -1.046781e+001 9.359014e-001 -1.037349e+001 1.056906e-001 6.840997e+001
3.162500e+009 1.114828e-001 7.866859e+001 9.393829e-001 -1.077240e+001 9.357287e-001 -1.068028e+001 1.067198e-001 6.873869e+001
3.165000e+009 1.115468e-001 7.777711e+001 9.394858e-001 -1.103116e+001 9.352615e-001 -1.094654e+001 1.066945e-001 6.794599e+001
3.167500e+009 1.116827e-001 7.728579e+001 9.398685e-001 -1.125928e+001 9.358607e-001 -1.122563e+001 1.060736e-001 6.761073e+001
3.170000e+009 1.106634e-001 7.711976e+001 9.382162e-001 -1.162565e+001 9.367116e-001 -1.154193e+001 1.051580e-001 6.756759e+001
3.172500e+009 1.112898e-001 7.669094e+001 9.387797e-001 -1.185585e+001 9.346312e-001 -1.184190e+001 1.063191e-001 6.711936e+001
3.175000e+009 1.117801e-001 7.701801e+001 9.382930e-001 -1.217811e+001 9.363243e-001 -1.219467e+001 1.067658e-001 6.683513e+001
3.177500e+009 1.122902e-001 7.665305e+001 9.389301e-001 -1.243263e+001 9.350452e-001 -1.243873e+001 1.067828e-001 6.630041e+001
3.180000e+009 1.119070e-001 7.597047e+001 9.382885e-001 -1.270767e+001 9.357042e-001 -1.281957e+001 1.059199e-001 6.564503e+001
3.182500e+009 1.111697e-001 7.561661e+001 9.391613e-001 -1.308559e+001 9.348928e-001 -1.304759e+001 1.066562e-001 6.606828e+001
3.185000e+009 1.104700e-001 7.529743e+001 9.381769e-001 -1.346721e+001 9.361054e-001 -1.324218e+001 1.072037e-001 6.531332e+001
3.187500e+009 1.104579e-001 7.474011e+001 9.382861e-001 -1.357827e+001 9.355603e-001 -1.361460e+001 1.067836e-001 6.527219e+001
3.190000e+009 1.104401e-001 7.421048e+001 9.383011e-001 -1.391613e+001 9.349689e-001 -1.392768e+001 1.056074e-001 6.482243e+001
3.192500e+009 1.093311e-001 7.382918e+001 9.383432e-001 -1.421110e+001 9.357900e-001 -1.425085e+001 1.067724e-001 6.378394e+001
3.195000e+009 1.086700e-001 7.435068e+001 9.390883e-001 -1.458655e+001 9.364036e-001 -1.449948e+001 1.060147e-001 6.394823e+001
3.197500e+009 1.080121e-001 7.450431e+001 9.381391e-001 -1.481579e+001 9.363824e-001 -1.479872e+001 1.056064e-001 6.267459e+001
3.200000e+009 1.083706e-001 7.439233e+001 9.386273e-001 -1.517404e+001 9.365395e-001 -1.509661e+001 1.050652e-001 6.325267e+001
3.202500e+009 1.085530e-001 7.358957e+001 9.375787e-001 -1.542299e+001 9.356061e-001 -1.547025e+001 1.048111e-001 6.310701e+001
3.205000e+009 1.058350e-001 7.248151e+001 9.382550e-001 -1.579036e+001 9.354344e-001 -1.571828e+001 1.049470e-001 6.326472e+001
3.207500e+009 1.059736e-001 7.286670e+001 9.384589e-001 -1.602291e+001 9.351282e-001 -1.607713e+001 1.031930e-001 6.237934e+001
3.210000e+009 1.059476e-001 7.238379e+001 9.379908e-001 -1.630491e+001 9.362059e-001 -1.635933e+001 1.044718e-001 6.245489e+001
3.212500e+009 1.042719e-001 7.196408e+001 9.383219e-001 -1.660118e+001 9.356084e-001 -1.659651e+001 1.043836e-001 6.220723e+001
3.215000e+009 1.046680e-001 7.147681e+001 9.394904e-001 -1.680733e+001 9.352707e-001 -1.691393e+001 1.018164e-001 6.210320e+001
3.217500e+009 1.016242e-001 7.136060e+001 9.380062e-001 -1.723216e+001 9.358475e-001 -1.714732e+001 1.033356e-001 6.144216e+001
3.220000e+009 1.036305e-001 7.159673e+001 9.368033e-001 -1.749786e+001 9.352860e-001 -1.747471e+001 1.031270e-001 6.131846e+001
3.222500e+009 1.012118e-001 7.049959e+001 9.377362e-001 -1.775488e+001 9.348198e-001 -1.779288e+001 1.013111e-001 6.081088e+001
3.225000e+009 1.023464e-001 7.130964e+001 9.377996e-001 -1.807491e+001 9.342323e-001 -1.811722e+001 1.002562e-001 6.117137e+001
3.227500e+009 9.963109e-002 7.122694e+001 9.404304e-001 -1.838061e+001 9.368673e-001 -1.842736e+001 9.939983e-002 6.029953e+001
3.230000e+009 9.868285e-002 7.095362e+001 9.390230e-001 -1.872775e+001 9.362891e-001 -1.872476e+001 1.005515e-001 6.050454e+001
3.232500e+009 1.001726e-001 7.059821e+001 9.405566e-001 -1.889075e+001 9.357260e-001 -1.894516e+001 9.812120e-002 6.020624e+001
3.235000e+009 9.844773e-002 6.979154e+001 9.374085e-001 -1.929367e+001 9.354814e-001 -1.924020e+001 9.929873e-002 5.983642e+001
3.237500e+009 9.769773e-002 7.001371e+001 9.387673e-001 -1.959896e+001 9.357724e-001 -1.958483e+001 9.754859e-002 5.957886e+001
3.240000e+009 9.749955e-002 6.998402e+001 9.385819e-001 -1.987346e+001 9.364150e-001 -1.988473e+001 9.711277e-002 5.896364e+001
3.242500e+009 9.767439e-002 7.069637e+001 9.373670e-001 -2.015605e+001 9.352489e-001 -2.015627e+001 9.678178e-002 5.857546e+001
3.245000e+009 9.732052e-002 6.988028e+001 9.389347e-001 -2.048795e+001 9.359257e-001 -2.049244e+001 9.726792e-002 5.880944e+001
3.247500e+009 9.722015e-002 6.945436e+001 9.388598e-001 -2.073000e+001 9.351740e-001 -2.079160e+001 9.678342e-002 5.792683e+001
3.250000e+009 9.770521e-002 6.916155e+001 9.391323e-001 -2.114373e+001 9.356282e-001 -2.106515e+001 9.521087e-002 5.723282e+001
3.252500e+009 9.755101e-002 6.936206e+001 9.385656e-001 -2.137938e+001 9.349893e-001 -2.138851e+001 9.549472e-002 5.720028e+001
3.255000e+009 9.784970e-002 7.003737e+001 9.378629e-001 -2.161181e+001 9.351604e-001 -2.170504e+001 9.500246e-002 5.693922e+001
3.257500e+009 9.760027e-002 7.012268e+001 9.397731e-001 -2.190201e+001 9.348654e-001 -2.196502e+001 9.525904e-002 5.640646e+001
3.260000e+009 9.743593e-002 7.050408e+001 9.379976e-001 -2.233938e+001 9.355865e-001 -2.219110e+001 9.517600e-002 5.663271e+001
3.262500e+009 9.771962e-002 6.926068e+001 9.384606e-001 -2.262037e+001 9.353468e-001 -2.259012e+001 9.496220e-002 5.497725e+001
3.265000e+009 9.770060e-002 6.997502e+001 9.394290e-001 -2.288798e+001 9.353486e-001 -2.283870e+001 9.407947e-002 5.510974e+001
3.267500e+009 9.803540e-002 6.952113e+001 9.371590e-001 -2.311383e+001 9.348137e-001 -2.313540e+001 9.385622e-002 5.446841e+001
3.270000e+009 9.839167e-002 6.924770e+001 9.376380e-001 -2.340326e+001 9.351825e-001 -2.338054e+001 9.455340e-002 5.424781e+001
3.272500e+009 9.945419e-002 6.913399e+001 9.388067e-001 -2.378544e+001 9.356692e-001 -2.366434e+001 9.242159e-002 5.294916e+001
3.275000e+009 9.914607e-002 6.933175e+001 9.385855e-001 -2.407512e+001 9.365653e-001 -2.402671e+001 9.294379e-002 5.231331e+001
3.277500e+009 9.874877e-002 6.932040e+001 9.372491e-001 -2.432590e+001 9.338307e-001 -2.435992e+001 9.356067e-002 5.217430e+001
3.280000e+009 9.780408e-002 6.927850e+001 9.365394e-001 -2.461758e+001 9.346616e-001 -2.465293e+001 9.396722e-002 5.258200e+001
3.282500e+009 9.845047e-002 6.838581e+001 9.382516e-001 -2.494790e+001 9.361263e-001 -2.489674e+001 9.213423e-002 5.125244e+001
3.285000e+009 9.935928e-002 6.870591e+001 9.366312e-001 -2.519043e+001 9.347990e-001 -2.522632e+001 9.205938e-002 5.070836e+001
3.287500e+009 9.841687e-002 6.785677e+001 9.383078e-001 -2.549420e+001 9.358725e-001 -2.556721e+001 9.405390e-002 4.986666e+001
3.290000e+009 9.881489e-002 6.815892e+001 9.375311e-001 -2.586641e+001 9.350564e-001 -2.587599e+001 9.182256e-002 5.036963e+001
3.292500e+009 9.838735e-002 6.822921e+001 9.378366e-001 -2.612417e+001 9.357419e-001 -2.610310e+001 9.171173e-002 4.839099e+001
3.295000e+009 9.950443e-002 6.823422e+001 9.385995e-001 -2.640009e+001 9.354694e-001 -2.640495e+001 9.143887e-002 4.820420e+001
3.297500e+009 9.854543e-002 6.783748e+001 9.385183e-001 -2.670326e+001 9.338358e-001 -2.660623e+001 9.228837e-002 4.821399e+001
3.300000e+009 9.751953e-002 6.683139e+001 9.365605e-001 -2.699822e+001 9.351838e-001 -2.701844e+001 9.258503e-002 4.707843e+001
3.302500e+009 9.858093e-002 6.729250e+001 9.389517e-001 -2.724626e+001 9.347826e-001 -2.732041e+001 9.075714e-002 4.705923e+001
3.305000e+009 9.785262e-002 6.660377e+001 9.373379e-001 -2.757800e+001 9.339891e-001 -2.758784e+001 9.135723e-002 4.634166e+001
3.307500e+009 9.731130e-002 6.704836e+001 9.387960e-001 -2.791386e+001 9.347996e-001 -2.793982e+001 8.993993e-002 4.644932e+001
3.310000e+009 9.675037e-002 6.710948e+001 9.375979e-001 -2.820924e+001 9.344558e-001 -2.818232e+001 9.042610e-002 4.550886e+001
3.312500e+009 9.660041e-002 6.622775e+001 9.382318e-001 -2.843101e+001 9.350920e-001 -2.852042e+001 9.096614e-002 4.568348e+001
3.315000e+009 9.653599e-002 6.644624e+001 9.368466e-001 -2.877659e+001 9.354208e-001 -2.880309e+001 9.008344e-002 4.442337e+001
3.317500e+009 9.600390e-002 6.667960e+001 9.376435e-001 -2.907928e+001 9.354123e-001 -2.913658e+001 9.007972e-002 4.460033e+001
3.320000e+009 9.580683e-002 6.614769e+001 9.374614e-001 -2.935414e+001 9.350346e-001 -2.946398e+001 9.031887e-002 4.361634e+001
3.322500e+009 9.354649e-002 6.590160e+001 9.379209e-001 -2.967705e+001 9.356247e-001 -2.976666e+001 8.927314e-002 4.355132e+001
3.325000e+009 9.339758e-002 6.517115e+001 9.385723e-001 -2.998838e+001 9.350427e-001 -3.002004e+001 9.030902e-002 4.292960e+001
3.327500e+009 9.246720e-002 6.560617e+001 9.383944e-001 -3.023943e+001 9.351093e-001 -3.026541e+001 8.928832e-002 4.249420e+001
3.330000e+009 9.231061e-002 6.454411e+001 9.392499e-001 -3.059410e+001 9.346721e-001 -3.060436e+001 8.856052e-002 4.189101e+001
3.332500e+009 9.279612e-002 6.484718e+001 9.372377e-001 -3.081411e+001 9.346364e-001 -3.088264e+001 8.744658e-002 4.091732e+001
3.335000e+009 9.242909e-002 6.539101e+001 9.375280e-001 -3.112142e+001 9.339553e-001 -3.119023e+001 8.780923e-002 4.170943e+001
3.337500e+009 9.060020e-002 6.399745e+001 9.383169e-001 -3.148181e+001 9.344144e-001 -3.146716e+001 8.681294e-002 4.120700e+001
3.340000e+009 9.008671e-002 6.422388e+001 9.376748e-001 -3.179236e+001 9.334689e-001 -3.176376e+001 8.620650e-002 4.052440e+001
3.342500e+009 8.960506e-002 6.378710e+001 9.377993e-001 -3.204433e+001 9.341989e-001 -3.210695e+001 8.653684e-002 3.988557e+001
3.345000e+009 8.942358e-002 6.358014e+001 9.391736e-001 -3.232423e+001 9.348686e-001 -3.237386e+001 8.639842e-002 3.977806e+001
3.347500e+009 8.883782e-002 6.332485e+001 9.385685e-001 -3.262349e+001 9.342154e-001 -3.267095e+001 8.606743e-002 3.981859e+001
3.350000e+009 8.849150e-002 6.230547e+001 9.394906e-001 -3.293309e+001 9.342996e-001 -3.299306e+001 8.521850e-002 3.920731e+001
3.352500e+009 8.921046e-002 6.305634e+001 9.382784e-001 -3.320488e+001 9.348572e-001 -3.326067e+001 8.461348e-002 3.924619e+001
3.355000e+009 8.813244e-002 6.221159e+001 9.382090e-001 -3.354371e+001 9.346695e-001 -3.357999e+001 8.463651e-002 3.943167e+001
3.357500e+009 8.782744e-002 6.273865e+001 9.391336e-001 -3.385265e+001 9.349958e-001 -3.387924e+001 8.371508e-002 3.933624e+001
3.360000e+009 8.777115e-002 6.175750e+001 9.380181e-001 -3.416605e+001 9.351622e-001 -3.417923e+001 8.304391e-002 3.925443e+001
3.362500e+009 8.704824e-002 6.170370e+001 9.381627e-001 -3.447216e+001 9.349648e-001 -3.448445e+001 8.195026e-002 3.806057e+001
3.365000e+009 8.600668e-002 6.130237e+001 9.387827e-001 -3.473180e+001 9.344007e-001 -3.470390e+001 8.051324e-002 3.826043e+001
3.367500e+009 8.644114e-002 6.099578e+001 9.389891e-001 -3.498733e+001 9.361740e-001 -3.502641e+001 8.075496e-002 3.728387e+001
3.370000e+009 8.688632e-002 6.091597e+001 9.374740e-001 -3.541349e+001 9.342733e-001 -3.536283e+001 8.174665e-002 3.593889e+001
3.372500e+009 8.513438e-002 5.986246e+001 9.367478e-001 -3.560062e+001 9.339618e-001 -3.567237e+001 8.107083e-002 3.701136e+001
3.375000e+009 8.506287e-002 6.028164e+001 9.374526e-001 -3.598703e+001 9.350505e-001 -3.600429e+001 7.885930e-002 3.674405e+001
3.377500e+009 8.401959e-002 6.009878e+001 9.370595e-001 -3.627523e+001 9.351413e-001 -3.630110e+001 7.908844e-002 3.502260e+001
3.380000e+009 8.435386e-002 5.935981e+001 9.368733e-001 -3.655563e+001 9.336468e-001 -3.662586e+001 7.902721e-002 3.551126e+001
