!Agilent Technologies,E8358A,US40260201,A.04.06
!Agilent E8358A: A.04.06
!Date: Saturday, February 25, 2012 15:21:52
!Correction: S11(Full 2 Port SOLT,1,2) S21(Full 2 Port SOLT,1,2) S12(Full 2 Port SOLT,1,2) S22(Full 2 Port SOLT,1,2) 
!S2P File: Measurements: S11, S21, S12, S22:
# Hz S  MA   R 50
3.000000e+009 2.786610e-001 -1.581010e+002 1.957807e+000 1.075954e+002 4.837048e-002 5.437223e+001 3.523867e-002 -1.772237e+002
3.002500e+009 2.679205e-001 -1.555248e+002 1.981313e+000 1.037341e+002 4.882063e-002 5.033318e+001 3.517721e-002 1.662338e+002
3.005000e+009 2.569732e-001 -1.533855e+002 2.007080e+000 1.000359e+002 4.967546e-002 4.960531e+001 3.922126e-002 1.530488e+002
3.007500e+009 2.472571e-001 -1.517834e+002 2.026053e+000 9.640350e+001 5.006483e-002 4.326421e+001 4.283353e-002 1.419712e+002
3.010000e+009 2.423712e-001 -1.492524e+002 2.046496e+000 9.253679e+001 5.119332e-002 3.926349e+001 4.633143e-002 1.328844e+002
3.012500e+009 2.353045e-001 -1.465834e+002 2.058727e+000 8.895006e+001 5.147500e-002 3.681513e+001 5.163680e-002 1.246743e+002
3.015000e+009 2.298894e-001 -1.445415e+002 2.074921e+000 8.522997e+001 5.248183e-002 3.140537e+001 5.548844e-002 1.183695e+002
3.017500e+009 2.258109e-001 -1.410192e+002 2.087233e+000 8.157749e+001 5.182891e-002 2.927633e+001 6.095495e-002 1.129928e+002
3.020000e+009 2.232050e-001 -1.390163e+002 2.112299e+000 7.815375e+001 5.166891e-002 2.667895e+001 6.609068e-002 1.123493e+002
3.022500e+009 2.205118e-001 -1.365439e+002 2.119378e+000 7.458699e+001 5.230467e-002 2.110338e+001 7.029995e-002 1.087786e+002
3.025000e+009 2.188333e-001 -1.330696e+002 2.134214e+000 7.116703e+001 5.327068e-002 1.840955e+001 7.689878e-002 1.045358e+002
3.027500e+009 2.194086e-001 -1.307539e+002 2.140073e+000 6.762994e+001 5.513640e-002 1.523480e+001 8.017124e-002 1.026133e+002
3.030000e+009 2.201202e-001 -1.278635e+002 2.153209e+000 6.423089e+001 5.421414e-002 1.129660e+001 8.338266e-002 9.967867e+001
3.032500e+009 2.195470e-001 -1.248149e+002 2.159451e+000 6.085508e+001 5.507676e-002 8.903086e+000 8.804705e-002 9.690108e+001
3.035000e+009 2.247301e-001 -1.225035e+002 2.170787e+000 5.752479e+001 5.685177e-002 5.572201e+000 8.977159e-002 9.492300e+001
3.037500e+009 2.288015e-001 -1.206129e+002 2.183806e+000 5.430060e+001 5.508995e-002 4.126660e+000 9.313124e-002 9.245084e+001
3.040000e+009 2.365309e-001 -1.177203e+002 2.196680e+000 5.107229e+001 5.786702e-002 -9.921129e-001 9.667615e-002 9.016536e+001
3.042500e+009 2.392642e-001 -1.154998e+002 2.204368e+000 4.778623e+001 5.559835e-002 -2.801984e+000 9.718952e-002 8.897576e+001
3.045000e+009 2.479302e-001 -1.150654e+002 2.213602e+000 4.465865e+001 5.680120e-002 -7.548770e+000 9.631798e-002 8.646426e+001
3.047500e+009 2.574559e-001 -1.136720e+002 2.218879e+000 4.126613e+001 5.695384e-002 -1.027052e+001 1.002377e-001 8.568953e+001
3.050000e+009 2.637350e-001 -1.126671e+002 2.224992e+000 3.811959e+001 5.659794e-002 -1.497271e+001 1.013928e-001 8.491332e+001
3.052500e+009 2.721567e-001 -1.114380e+002 2.232814e+000 3.495544e+001 5.843512e-002 -1.697869e+001 1.022903e-001 8.325162e+001
3.055000e+009 2.805314e-001 -1.109925e+002 2.238780e+000 3.180866e+001 5.989073e-002 -2.017865e+001 9.988632e-002 8.253169e+001
3.057500e+009 2.864426e-001 -1.107245e+002 2.240537e+000 2.873778e+001 5.735683e-002 -2.375837e+001 1.026860e-001 8.398360e+001
3.060000e+009 2.938681e-001 -1.106206e+002 2.248949e+000 2.569993e+001 5.803844e-002 -2.607781e+001 1.015589e-001 8.328893e+001
3.062500e+009 3.014255e-001 -1.100765e+002 2.248754e+000 2.260787e+001 5.959754e-002 -2.725665e+001 1.030594e-001 8.273795e+001
3.065000e+009 3.060642e-001 -1.105869e+002 2.259183e+000 1.952036e+001 6.018210e-002 -3.243346e+001 1.062337e-001 8.328175e+001
3.067500e+009 3.129470e-001 -1.109884e+002 2.259221e+000 1.675450e+001 5.978483e-002 -3.620469e+001 1.054323e-001 8.362162e+001
3.070000e+009 3.205892e-001 -1.107663e+002 2.260776e+000 1.364842e+001 5.942549e-002 -3.605859e+001 1.101890e-001 8.292432e+001
3.072500e+009 3.282786e-001 -1.105565e+002 2.268022e+000 1.071456e+001 5.867527e-002 -3.890305e+001 1.137983e-001 8.295120e+001
3.075000e+009 3.295756e-001 -1.108371e+002 2.273933e+000 7.759417e+000 5.932378e-002 -4.253868e+001 1.181678e-001 8.115831e+001
3.077500e+009 3.361644e-001 -1.106248e+002 2.275575e+000 4.847114e+000 5.961888e-002 -4.770833e+001 1.219122e-001 8.156715e+001
3.080000e+009 3.407080e-001 -1.112018e+002 2.274109e+000 1.879628e+000 6.075583e-002 -4.924710e+001 1.257064e-001 8.017947e+001
3.082500e+009 3.481479e-001 -1.105223e+002 2.271235e+000 -1.012616e+000 5.844495e-002 -5.101789e+001 1.307734e-001 7.767133e+001
3.085000e+009 3.527484e-001 -1.107385e+002 2.272224e+000 -3.789528e+000 6.161812e-002 -5.454222e+001 1.325913e-001 7.708260e+001
3.087500e+009 3.605909e-001 -1.109210e+002 2.275072e+000 -6.554893e+000 5.919422e-002 -5.607198e+001 1.375524e-001 7.470356e+001
3.090000e+009 3.659220e-001 -1.111830e+002 2.272156e+000 -9.365417e+000 6.034045e-002 -6.214425e+001 1.399190e-001 7.345860e+001
3.092500e+009 3.730370e-001 -1.114937e+002 2.276466e+000 -1.215887e+001 6.049461e-002 -6.143238e+001 1.433316e-001 7.214103e+001
3.095000e+009 3.815295e-001 -1.114733e+002 2.269897e+000 -1.484984e+001 5.977876e-002 -6.618192e+001 1.460495e-001 6.950856e+001
3.097500e+009 3.866372e-001 -1.115514e+002 2.270085e+000 -1.748720e+001 6.085113e-002 -6.695730e+001 1.498094e-001 6.907189e+001
3.100000e+009 3.948366e-001 -1.123261e+002 2.271136e+000 -2.021919e+001 6.215801e-002 -7.082158e+001 1.510342e-001 6.753656e+001
3.102500e+009 4.001783e-001 -1.126814e+002 2.267886e+000 -2.289508e+001 6.181891e-002 -7.334695e+001 1.561489e-001 6.619524e+001
3.105000e+009 4.064898e-001 -1.134322e+002 2.267080e+000 -2.563937e+001 5.762414e-002 -7.519741e+001 1.613774e-001 6.558255e+001
3.107500e+009 4.115986e-001 -1.137871e+002 2.261936e+000 -2.822177e+001 5.993538e-002 -7.952111e+001 1.671029e-001 6.401709e+001
3.110000e+009 4.183449e-001 -1.143971e+002 2.262551e+000 -3.086407e+001 5.995979e-002 -8.002928e+001 1.717507e-001 6.258000e+001
3.112500e+009 4.217083e-001 -1.152425e+002 2.256006e+000 -3.324364e+001 6.009694e-002 -8.409772e+001 1.766949e-001 6.077306e+001
3.115000e+009 4.236183e-001 -1.155623e+002 2.257082e+000 -3.587849e+001 5.997151e-002 -8.450925e+001 1.857167e-001 5.988083e+001
3.117500e+009 4.293631e-001 -1.166321e+002 2.250269e+000 -3.838211e+001 6.020255e-002 -8.827762e+001 1.943216e-001 5.813908e+001
3.120000e+009 4.297744e-001 -1.165739e+002 2.245841e+000 -4.087135e+001 6.117306e-002 -9.081655e+001 2.003700e-001 5.622773e+001
3.122500e+009 4.337412e-001 -1.172054e+002 2.240104e+000 -4.348901e+001 6.006642e-002 -9.456765e+001 2.080802e-001 5.451498e+001
3.125000e+009 4.359565e-001 -1.174458e+002 2.239558e+000 -4.584115e+001 5.744321e-002 -9.570590e+001 2.153558e-001 5.207768e+001
3.127500e+009 4.372941e-001 -1.178831e+002 2.231147e+000 -4.831859e+001 5.860375e-002 -9.640357e+001 2.249879e-001 5.044675e+001
3.130000e+009 4.385155e-001 -1.182063e+002 2.227858e+000 -5.078382e+001 6.022580e-002 -9.937408e+001 2.299777e-001 4.832924e+001
3.132500e+009 4.413386e-001 -1.184584e+002 2.219446e+000 -5.300903e+001 5.926249e-002 -1.003802e+002 2.387682e-001 4.630360e+001
3.135000e+009 4.446802e-001 -1.187500e+002 2.218797e+000 -5.535431e+001 6.095969e-002 -1.032807e+002 2.462137e-001 4.375398e+001
3.137500e+009 4.500896e-001 -1.187893e+002 2.219278e+000 -5.761586e+001 6.011878e-002 -1.059078e+002 2.524761e-001 4.176149e+001
3.140000e+009 4.519705e-001 -1.192439e+002 2.212818e+000 -6.006870e+001 6.072300e-002 -1.068571e+002 2.596554e-001 4.003933e+001
3.142500e+009 4.541026e-001 -1.194642e+002 2.210286e+000 -6.221980e+001 6.020394e-002 -1.089828e+002 2.646178e-001 3.780973e+001
3.145000e+009 4.563776e-001 -1.203365e+002 2.205368e+000 -6.492374e+001 6.051431e-002 -1.114791e+002 2.715200e-001 3.628038e+001
3.147500e+009 4.622871e-001 -1.203792e+002 2.201417e+000 -6.690171e+001 6.030228e-002 -1.164644e+002 2.784815e-001 3.381865e+001
3.150000e+009 4.669550e-001 -1.211339e+002 2.194426e+000 -6.941006e+001 6.109946e-002 -1.184442e+002 2.845595e-001 3.242715e+001
3.152500e+009 4.711836e-001 -1.218158e+002 2.191312e+000 -7.162830e+001 6.185499e-002 -1.203617e+002 2.878971e-001 3.021269e+001
3.155000e+009 4.740886e-001 -1.223538e+002 2.179076e+000 -7.379588e+001 6.063199e-002 -1.203739e+002 2.962755e-001 2.867015e+001
3.157500e+009 4.786281e-001 -1.229930e+002 2.171625e+000 -7.587782e+001 6.047080e-002 -1.257527e+002 3.002598e-001 2.695858e+001
3.160000e+009 4.806718e-001 -1.239520e+002 2.172592e+000 -7.808327e+001 6.019543e-002 -1.245324e+002 3.066320e-001 2.525048e+001
3.162500e+009 4.830350e-001 -1.249028e+002 2.163345e+000 -8.010882e+001 5.904895e-002 -1.270275e+002 3.078437e-001 2.369736e+001
3.165000e+009 4.864602e-001 -1.258465e+002 2.164893e+000 -8.220322e+001 6.020426e-002 -1.291820e+002 3.120737e-001 2.190536e+001
3.167500e+009 4.888313e-001 -1.264044e+002 2.153565e+000 -8.425574e+001 6.045301e-002 -1.303888e+002 3.180854e-001 2.037869e+001
3.170000e+009 4.860813e-001 -1.274416e+002 2.156145e+000 -8.632072e+001 5.971391e-002 -1.322531e+002 3.243245e-001 1.916607e+001
3.172500e+009 4.874971e-001 -1.282832e+002 2.146220e+000 -8.838701e+001 5.988515e-002 -1.352472e+002 3.303169e-001 1.721291e+001
3.175000e+009 4.902521e-001 -1.294702e+002 2.151781e+000 -9.043565e+001 6.081186e-002 -1.373943e+002 3.351457e-001 1.563215e+001
3.177500e+009 4.903630e-001 -1.301457e+002 2.149615e+000 -9.243275e+001 5.960439e-002 -1.386197e+002 3.405015e-001 1.388536e+001
3.180000e+009 4.900110e-001 -1.307196e+002 2.150189e+000 -9.451604e+001 5.860577e-002 -1.415159e+002 3.440548e-001 1.204529e+001
3.182500e+009 4.889452e-001 -1.317268e+002 2.148347e+000 -9.654003e+001 6.035601e-002 -1.418268e+002 3.482632e-001 9.952027e+000
3.185000e+009 4.914591e-001 -1.321533e+002 2.148714e+000 -9.851757e+001 6.050770e-002 -1.405546e+002 3.544449e-001 8.148434e+000
3.187500e+009 4.880085e-001 -1.328243e+002 2.155371e+000 -1.005340e+002 6.015530e-002 -1.455574e+002 3.560839e-001 6.258345e+000
3.190000e+009 4.893432e-001 -1.334286e+002 2.156025e+000 -1.025593e+002 5.822299e-002 -1.480637e+002 3.594022e-001 4.167212e+000
3.192500e+009 4.904490e-001 -1.337100e+002 2.153979e+000 -1.046496e+002 6.303306e-002 -1.498164e+002 3.612782e-001 1.984817e+000
3.195000e+009 4.914034e-001 -1.345348e+002 2.155940e+000 -1.066816e+002 6.271588e-002 -1.513726e+002 3.632793e-001 8.533587e-002
3.197500e+009 4.927186e-001 -1.350580e+002 2.153647e+000 -1.087418e+002 6.145068e-002 -1.527740e+002 3.653224e-001 -2.010711e+000
3.200000e+009 4.929554e-001 -1.356391e+002 2.159244e+000 -1.109032e+002 6.040693e-002 -1.558586e+002 3.644768e-001 -3.993332e+000
3.202500e+009 4.948670e-001 -1.362509e+002 2.152812e+000 -1.129161e+002 6.538059e-002 -1.566562e+002 3.652785e-001 -5.862655e+000
3.205000e+009 4.979569e-001 -1.371223e+002 2.147014e+000 -1.151777e+002 6.217821e-002 -1.605916e+002 3.642178e-001 -7.859853e+000
3.207500e+009 4.999946e-001 -1.375032e+002 2.143287e+000 -1.170006e+002 6.375530e-002 -1.625374e+002 3.629024e-001 -9.925757e+000
3.210000e+009 5.029695e-001 -1.382157e+002 2.146293e+000 -1.188784e+002 6.362227e-002 -1.652400e+002 3.634606e-001 -1.166875e+001
3.212500e+009 5.051746e-001 -1.391051e+002 2.138621e+000 -1.209942e+002 6.242772e-002 -1.659949e+002 3.630536e-001 -1.358033e+001
3.215000e+009 5.058821e-001 -1.398859e+002 2.133448e+000 -1.229027e+002 6.379867e-002 -1.683583e+002 3.629870e-001 -1.563048e+001
3.217500e+009 5.088276e-001 -1.404860e+002 2.127576e+000 -1.248321e+002 6.504231e-002 -1.677174e+002 3.639332e-001 -1.723138e+001
3.220000e+009 5.080532e-001 -1.414837e+002 2.122818e+000 -1.265973e+002 6.072183e-002 -1.723862e+002 3.627540e-001 -1.900348e+001
3.222500e+009 5.061353e-001 -1.426901e+002 2.121757e+000 -1.285094e+002 6.312938e-002 -1.746074e+002 3.636661e-001 -2.060357e+001
3.225000e+009 5.083069e-001 -1.438082e+002 2.125740e+000 -1.302587e+002 6.505613e-002 -1.765421e+002 3.631985e-001 -2.252671e+001
3.227500e+009 5.038604e-001 -1.439115e+002 2.123852e+000 -1.321425e+002 6.175331e-002 -1.790299e+002 3.660951e-001 -2.406542e+001
3.230000e+009 5.034977e-001 -1.452056e+002 2.121391e+000 -1.340064e+002 6.223376e-002 1.799531e+002 3.670165e-001 -2.595434e+001
3.232500e+009 4.990851e-001 -1.459445e+002 2.125802e+000 -1.355820e+002 6.150412e-002 1.784599e+002 3.699300e-001 -2.826350e+001
3.235000e+009 4.990219e-001 -1.464236e+002 2.128549e+000 -1.371858e+002 6.346965e-002 1.770408e+002 3.688936e-001 -3.034486e+001
3.237500e+009 4.978443e-001 -1.470915e+002 2.134381e+000 -1.390721e+002 6.424797e-002 1.757200e+002 3.747801e-001 -3.194181e+001
3.240000e+009 4.902966e-001 -1.474701e+002 2.136022e+000 -1.408378e+002 6.217521e-002 1.749516e+002 3.769318e-001 -3.384480e+001
3.242500e+009 4.883953e-001 -1.482449e+002 2.142998e+000 -1.425055e+002 6.381775e-002 1.730586e+002 3.784380e-001 -3.644367e+001
3.245000e+009 4.879646e-001 -1.485718e+002 2.152110e+000 -1.444797e+002 6.473719e-002 1.739458e+002 3.778158e-001 -3.872704e+001
3.247500e+009 4.831862e-001 -1.493634e+002 2.161209e+000 -1.462465e+002 6.511180e-002 1.710962e+002 3.821297e-001 -4.121260e+001
3.250000e+009 4.803734e-001 -1.493992e+002 2.172585e+000 -1.481421e+002 6.499070e-002 1.683247e+002 3.830402e-001 -4.346413e+001
3.252500e+009 4.768015e-001 -1.502535e+002 2.176459e+000 -1.500096e+002 6.637060e-002 1.671687e+002 3.826997e-001 -4.593572e+001
3.255000e+009 4.753772e-001 -1.505094e+002 2.181163e+000 -1.517651e+002 6.453713e-002 1.640879e+002 3.828636e-001 -4.800499e+001
3.257500e+009 4.750015e-001 -1.511034e+002 2.193910e+000 -1.536750e+002 6.832460e-002 1.636687e+002 3.839887e-001 -5.035205e+001
3.260000e+009 4.715072e-001 -1.514376e+002 2.193245e+000 -1.557783e+002 6.843161e-002 1.600069e+002 3.836669e-001 -5.241720e+001
3.262500e+009 4.718112e-001 -1.521006e+002 2.201696e+000 -1.577561e+002 6.683035e-002 1.578908e+002 3.839958e-001 -5.487342e+001
3.265000e+009 4.717699e-001 -1.525277e+002 2.209115e+000 -1.597005e+002 6.722147e-002 1.584402e+002 3.836223e-001 -5.674291e+001
3.267500e+009 4.689104e-001 -1.533050e+002 2.209204e+000 -1.615775e+002 6.723493e-002 1.527938e+002 3.823067e-001 -5.906044e+001
3.270000e+009 4.683514e-001 -1.538983e+002 2.212871e+000 -1.635680e+002 7.071240e-002 1.525077e+002 3.826950e-001 -6.072467e+001
3.272500e+009 4.676088e-001 -1.546776e+002 2.216337e+000 -1.654977e+002 6.978844e-002 1.511465e+002 3.832963e-001 -6.271885e+001
3.275000e+009 4.680350e-001 -1.553207e+002 2.215149e+000 -1.676362e+002 6.982194e-002 1.486981e+002 3.830835e-001 -6.486345e+001
3.277500e+009 4.658504e-001 -1.560581e+002 2.220002e+000 -1.692870e+002 6.788572e-002 1.461974e+002 3.834375e-001 -6.624805e+001
3.280000e+009 4.656383e-001 -1.571023e+002 2.215639e+000 -1.713660e+002 7.012928e-002 1.446589e+002 3.837805e-001 -6.821857e+001
3.282500e+009 4.648667e-001 -1.579640e+002 2.218292e+000 -1.732102e+002 6.783825e-002 1.430663e+002 3.834315e-001 -7.010925e+001
3.285000e+009 4.626686e-001 -1.587734e+002 2.216780e+000 -1.749361e+002 7.055442e-002 1.419082e+002 3.857453e-001 -7.228364e+001
3.287500e+009 4.577309e-001 -1.598044e+002 2.221714e+000 -1.767051e+002 7.164852e-002 1.369940e+002 3.882867e-001 -7.390975e+001
3.290000e+009 4.573381e-001 -1.604098e+002 2.223740e+000 -1.785191e+002 6.841921e-002 1.373803e+002 3.874869e-001 -7.585706e+001
3.292500e+009 4.533495e-001 -1.615037e+002 2.220645e+000 1.797305e+002 6.939416e-002 1.355377e+002 3.889408e-001 -7.815311e+001
3.295000e+009 4.503414e-001 -1.622787e+002 2.228642e+000 1.781146e+002 6.983116e-002 1.329478e+002 3.905756e-001 -8.023505e+001
3.297500e+009 4.466623e-001 -1.632702e+002 2.228787e+000 1.763540e+002 6.969739e-002 1.316914e+002 3.884083e-001 -8.196305e+001
3.300000e+009 4.428616e-001 -1.641984e+002 2.240003e+000 1.746679e+002 6.927150e-002 1.311642e+002 3.908693e-001 -8.383675e+001
3.302500e+009 4.397806e-001 -1.647330e+002 2.249640e+000 1.728338e+002 7.045569e-002 1.302727e+002 3.904816e-001 -8.630516e+001
3.305000e+009 4.376886e-001 -1.651045e+002 2.260565e+000 1.709716e+002 7.003733e-002 1.283036e+002 3.927915e-001 -8.853907e+001
3.307500e+009 4.347627e-001 -1.659312e+002 2.273201e+000 1.691744e+002 6.977322e-002 1.265324e+002 3.908578e-001 -9.083532e+001
3.310000e+009 4.319705e-001 -1.666503e+002 2.280389e+000 1.672634e+002 7.098821e-002 1.259891e+002 3.869867e-001 -9.314694e+001
3.312500e+009 4.274685e-001 -1.667906e+002 2.289829e+000 1.654145e+002 7.187751e-002 1.213187e+002 3.888984e-001 -9.500484e+001
3.315000e+009 4.238465e-001 -1.675383e+002 2.300429e+000 1.635271e+002 7.218348e-002 1.210895e+002 3.881381e-001 -9.753865e+001
3.317500e+009 4.225897e-001 -1.679030e+002 2.308495e+000 1.617575e+002 7.228924e-002 1.196148e+002 3.861006e-001 -9.992543e+001
3.320000e+009 4.222378e-001 -1.684011e+002 2.319570e+000 1.599041e+002 7.511378e-002 1.175580e+002 3.819355e-001 -1.021919e+002
3.322500e+009 4.219382e-001 -1.689517e+002 2.326835e+000 1.577357e+002 7.510252e-002 1.169351e+002 3.782793e-001 -1.044520e+002
3.325000e+009 4.204968e-001 -1.696973e+002 2.338573e+000 1.557854e+002 7.556698e-002 1.119133e+002 3.773705e-001 -1.065868e+002
3.327500e+009 4.195549e-001 -1.701381e+002 2.338515e+000 1.536940e+002 7.574122e-002 1.103282e+002 3.773120e-001 -1.089418e+002
3.330000e+009 4.163814e-001 -1.703324e+002 2.338942e+000 1.517580e+002 7.661090e-002 1.101370e+002 3.745939e-001 -1.114319e+002
3.332500e+009 4.139274e-001 -1.711593e+002 2.344212e+000 1.497665e+002 7.596729e-002 1.083321e+002 3.709339e-001 -1.139880e+002
3.335000e+009 4.144677e-001 -1.720801e+002 2.341658e+000 1.478967e+002 7.478970e-002 1.058722e+002 3.683711e-001 -1.162500e+002
3.337500e+009 4.151478e-001 -1.725815e+002 2.346051e+000 1.458516e+002 7.582434e-002 1.021572e+002 3.695058e-001 -1.184161e+002
3.340000e+009 4.094672e-001 -1.735231e+002 2.346553e+000 1.440317e+002 7.566250e-002 1.010128e+002 3.661225e-001 -1.208928e+002
3.342500e+009 4.078565e-001 -1.741028e+002 2.348361e+000 1.421523e+002 7.552782e-002 1.005230e+002 3.675429e-001 -1.234758e+002
3.345000e+009 4.060597e-001 -1.752599e+002 2.351091e+000 1.402169e+002 7.611144e-002 9.872143e+001 3.645669e-001 -1.258678e+002
3.347500e+009 3.986752e-001 -1.759384e+002 2.351462e+000 1.384673e+002 7.655607e-002 9.538077e+001 3.639026e-001 -1.287411e+002
3.350000e+009 3.981096e-001 -1.766351e+002 2.353231e+000 1.366673e+002 7.584843e-002 9.362037e+001 3.631654e-001 -1.314969e+002
3.352500e+009 3.907858e-001 -1.774237e+002 2.360502e+000 1.349208e+002 7.748508e-002 9.217683e+001 3.618012e-001 -1.337462e+002
3.355000e+009 3.852120e-001 -1.783079e+002 2.360858e+000 1.329373e+002 7.607102e-002 9.079299e+001 3.631399e-001 -1.368938e+002
3.357500e+009 3.814348e-001 -1.787342e+002 2.369146e+000 1.313391e+002 7.833232e-002 8.935216e+001 3.613095e-001 -1.399225e+002
3.360000e+009 3.777288e-001 -1.791966e+002 2.369362e+000 1.294026e+002 7.726444e-002 8.709265e+001 3.605196e-001 -1.426306e+002
3.362500e+009 3.727311e-001 -1.798562e+002 2.375643e+000 1.274512e+002 7.694690e-002 8.579942e+001 3.604919e-001 -1.457900e+002
3.365000e+009 3.652503e-001 1.797025e+002 2.382582e+000 1.256229e+002 7.714416e-002 8.431546e+001 3.579240e-001 -1.484812e+002
3.367500e+009 3.614848e-001 1.792995e+002 2.393537e+000 1.237803e+002 7.752293e-002 8.287403e+001 3.578689e-001 -1.514898e+002
3.370000e+009 3.553501e-001 1.787579e+002 2.395680e+000 1.218450e+002 7.663833e-002 8.076826e+001 3.573236e-001 -1.543292e+002
3.372500e+009 3.554846e-001 1.785704e+002 2.397211e+000 1.200339e+002 7.742643e-002 7.857697e+001 3.539374e-001 -1.569637e+002
3.375000e+009 3.481171e-001 1.778288e+002 2.405647e+000 1.180219e+002 8.025835e-002 7.766708e+001 3.539536e-001 -1.602312e+002
3.377500e+009 3.462588e-001 1.775590e+002 2.406124e+000 1.161630e+002 8.050454e-002 7.456266e+001 3.539436e-001 -1.623922e+002
