!Agilent Technologies,E8358A,US40260201,A.04.06
!Agilent E8358A: A.04.06
!Date: Saturday, February 25, 2012 17:41:13
!Correction: S11(Full 2 Port SOLT,1,2) S21(Full 2 Port SOLT,1,2) S12(Full 2 Port SOLT,1,2) S22(Full 2 Port SOLT,1,2) 
!S2P File: Measurements: S11, S21, S12, S22:
# Hz S  MA   R 50
3.000000e+009 1.434423e-001 -1.326979e+002 2.830345e+001 -1.629178e+002 6.239159e-003 1.333288e+002 4.320695e-001 -6.126366e+001
3.002500e+009 1.416920e-001 -1.315019e+002 2.843686e+001 -1.642403e+002 1.171191e-002 1.593898e+002 4.236545e-001 -6.320509e+001
3.005000e+009 1.371610e-001 -1.352312e+002 2.853920e+001 -1.654865e+002 9.561648e-003 -6.908680e+001 4.482037e-001 -6.644326e+001
3.007500e+009 1.461781e-001 -1.371287e+002 2.859167e+001 -1.667564e+002 1.390029e-002 1.005362e+002 4.414962e-001 -6.506569e+001
3.010000e+009 1.371198e-001 -1.360265e+002 2.869219e+001 -1.681137e+002 9.281352e-003 7.477159e+000 4.325653e-001 -7.261573e+001
3.012500e+009 1.467814e-001 -1.310283e+002 2.883593e+001 -1.693972e+002 4.572330e-003 1.032917e+002 4.353202e-001 -7.141351e+001
3.015000e+009 1.434425e-001 -1.331987e+002 2.883235e+001 -1.708195e+002 4.136081e-003 -8.311120e+001 4.209559e-001 -7.607720e+001
3.017500e+009 1.282480e-001 -1.370716e+002 2.888727e+001 -1.723221e+002 1.740738e-002 2.470645e+001 4.767468e-001 -7.486962e+001
3.020000e+009 1.344852e-001 -1.341075e+002 2.899154e+001 -1.737793e+002 8.721029e-003 5.620964e+001 4.373151e-001 -7.451643e+001
3.022500e+009 1.437277e-001 -1.352244e+002 2.896001e+001 -1.752471e+002 7.731449e-003 -1.613931e+002 4.099888e-001 -8.077408e+001
3.025000e+009 1.327697e-001 -1.307102e+002 2.898963e+001 -1.767737e+002 5.303385e-003 -2.527394e+001 4.005257e-001 -8.121497e+001
3.027500e+009 1.533608e-001 -1.309279e+002 2.895665e+001 -1.783513e+002 6.301972e-003 -1.554646e+002 3.858327e-001 -8.491876e+001
3.030000e+009 1.347509e-001 -1.287501e+002 2.884930e+001 -1.797008e+002 1.177516e-002 -3.749941e+001 4.190714e-001 -9.276472e+001
3.032500e+009 1.548406e-001 -1.309163e+002 2.878601e+001 1.786567e+002 1.221822e-002 -1.257661e+002 3.787341e-001 -8.924590e+001
3.035000e+009 1.305182e-001 -1.240221e+002 2.869847e+001 1.772837e+002 1.310520e-002 -3.927512e+001 3.999862e-001 -9.323874e+001
3.037500e+009 1.473268e-001 -1.370482e+002 2.859528e+001 1.758804e+002 2.991495e-003 8.259216e+001 4.080840e-001 -9.377068e+001
3.040000e+009 1.346556e-001 -1.362814e+002 2.847435e+001 1.746872e+002 8.582832e-003 3.810500e+001 4.154724e-001 -9.636847e+001
3.042500e+009 1.363412e-001 -1.390675e+002 2.833406e+001 1.733679e+002 3.223452e-003 3.044165e+001 4.045574e-001 -9.750043e+001
3.045000e+009 1.552489e-001 -1.389855e+002 2.830417e+001 1.723365e+002 6.720041e-003 1.308662e+002 4.133393e-001 -1.031559e+002
3.047500e+009 1.526454e-001 -1.413880e+002 2.816756e+001 1.710249e+002 8.693554e-003 1.064981e+002 4.251618e-001 -1.058051e+002
3.050000e+009 1.180463e-001 -1.391908e+002 2.820837e+001 1.700154e+002 1.069204e-002 4.916838e+001 4.121936e-001 -1.089944e+002
3.052500e+009 1.630837e-001 -1.509885e+002 2.812136e+001 1.688171e+002 1.151415e-002 1.307175e+002 4.069588e-001 -1.100160e+002
3.055000e+009 1.245392e-001 -1.376498e+002 2.811742e+001 1.676195e+002 6.568413e-003 5.301083e+001 4.148147e-001 -1.127574e+002
3.057500e+009 1.117477e-001 -1.425925e+002 2.817155e+001 1.662231e+002 1.221865e-002 5.179955e+001 3.801222e-001 -1.166299e+002
3.060000e+009 1.162327e-001 -1.314912e+002 2.824494e+001 1.653269e+002 1.076405e-002 4.673473e+000 3.918739e-001 -1.167385e+002
3.062500e+009 1.381566e-001 -1.393624e+002 2.822328e+001 1.639897e+002 2.428476e-003 1.357967e+000 3.836313e-001 -1.178017e+002
3.065000e+009 1.369289e-001 -1.376255e+002 2.842262e+001 1.626543e+002 6.244007e-003 1.571715e+001 3.950356e-001 -1.247433e+002
3.067500e+009 1.768525e-001 -1.294718e+002 2.843205e+001 1.616628e+002 1.096343e-002 -5.354310e+001 4.001480e-001 -1.204975e+002
3.070000e+009 1.353366e-001 -1.453255e+002 2.843988e+001 1.602176e+002 3.463449e-003 8.837482e+001 4.002271e-001 -1.227057e+002
3.072500e+009 1.861715e-001 -1.510956e+002 2.867110e+001 1.587852e+002 8.160132e-003 -1.394036e+002 4.097036e-001 -1.271211e+002
3.075000e+009 1.177575e-001 -1.651447e+002 2.876738e+001 1.569227e+002 1.574779e-002 1.236709e+002 3.990737e-001 -1.348734e+002
3.077500e+009 1.234880e-001 -1.368136e+002 2.882409e+001 1.560043e+002 7.257137e-003 4.842987e+001 4.152655e-001 -1.297585e+002
3.080000e+009 1.094563e-001 -1.538646e+002 2.877375e+001 1.541896e+002 8.118331e-003 8.828696e+001 4.057051e-001 -1.305306e+002
3.082500e+009 1.498622e-001 -1.523175e+002 2.890735e+001 1.524410e+002 1.180134e-003 -1.408256e+002 4.292704e-001 -1.368533e+002
3.085000e+009 1.975535e-001 -1.414590e+002 2.884332e+001 1.514582e+002 9.279639e-003 -4.545599e+001 4.180392e-001 -1.311219e+002
3.087500e+009 1.583232e-001 -1.424509e+002 2.883593e+001 1.492957e+002 3.638964e-003 3.291406e+001 4.137124e-001 -1.411542e+002
3.090000e+009 1.431460e-001 -1.592919e+002 2.871886e+001 1.475012e+002 6.652352e-003 1.686740e+002 4.087260e-001 -1.457313e+002
3.092500e+009 1.658615e-001 -1.513035e+002 2.867698e+001 1.460532e+002 2.791701e-003 2.895658e+000 4.362532e-001 -1.430377e+002
3.095000e+009 1.874965e-001 -1.521305e+002 2.845420e+001 1.446709e+002 7.072412e-003 -5.345678e+001 4.106562e-001 -1.455083e+002
3.097500e+009 1.284698e-001 -1.534503e+002 2.831524e+001 1.430578e+002 6.104649e-003 1.603452e+002 4.181093e-001 -1.483472e+002
3.100000e+009 2.287469e-001 -1.600126e+002 2.819063e+001 1.412997e+002 1.631046e-002 -7.836117e+001 4.503065e-001 -1.549107e+002
3.102500e+009 1.645620e-001 -1.582610e+002 2.786794e+001 1.402690e+002 7.716552e-003 -1.414814e+002 4.140339e-001 -1.563024e+002
3.105000e+009 1.417003e-001 -1.444118e+002 2.774414e+001 1.392222e+002 8.842617e-003 1.013397e+002 3.968940e-001 -1.546500e+002
3.107500e+009 1.923471e-001 -1.533131e+002 2.776244e+001 1.375492e+002 8.053608e-003 -1.462222e+001 4.550456e-001 -1.551803e+002
3.110000e+009 1.751586e-001 -1.532998e+002 2.754066e+001 1.365363e+002 5.218013e-003 -7.883244e+000 4.479253e-001 -1.571774e+002
3.112500e+009 1.790111e-001 -1.578558e+002 2.739616e+001 1.354199e+002 7.728941e-003 -6.725671e+001 4.186000e-001 -1.623008e+002
3.115000e+009 1.831231e-001 -1.505260e+002 2.728903e+001 1.342672e+002 6.895349e-003 -4.713568e+000 4.360011e-001 -1.631192e+002
3.117500e+009 1.635312e-001 -1.583017e+002 2.719628e+001 1.334456e+002 3.447728e-003 -1.462098e+002 4.044107e-001 -1.665571e+002
3.120000e+009 1.905364e-001 -1.549163e+002 2.723651e+001 1.324538e+002 1.082698e-002 -7.389817e+000 4.148784e-001 -1.650000e+002
3.122500e+009 1.654642e-001 -1.488763e+002 2.717323e+001 1.314291e+002 3.314157e-003 6.460967e+001 4.016764e-001 -1.718429e+002
3.125000e+009 1.896027e-001 -1.532561e+002 2.725424e+001 1.301798e+002 7.001337e-003 2.544006e+001 4.045153e-001 -1.712432e+002
3.127500e+009 1.603751e-001 -1.547890e+002 2.726310e+001 1.288845e+002 3.043819e-003 -5.521352e+001 4.262424e-001 -1.747187e+002
3.130000e+009 1.541068e-001 -1.449494e+002 2.743042e+001 1.280043e+002 7.561231e-003 1.209185e+002 3.760224e-001 -1.752263e+002
3.132500e+009 1.703772e-001 -1.425020e+002 2.752308e+001 1.267026e+002 1.395325e-002 1.144507e+002 3.579270e-001 -1.764390e+002
3.135000e+009 1.539519e-001 -1.509086e+002 2.757725e+001 1.253920e+002 7.715599e-003 1.106912e+002 3.920121e-001 -1.755037e+002
3.137500e+009 1.561673e-001 -1.509037e+002 2.761469e+001 1.241221e+002 2.476800e-003 1.056733e+002 3.807193e-001 1.777289e+002
3.140000e+009 1.345326e-001 -1.513777e+002 2.778588e+001 1.225492e+002 1.134959e-002 1.609718e+002 3.849076e-001 1.760894e+002
3.142500e+009 1.882479e-001 -1.533258e+002 2.787932e+001 1.209989e+002 1.750536e-002 1.498943e+001 4.115036e-001 1.774819e+002
3.145000e+009 1.529990e-001 -1.518135e+002 2.787171e+001 1.194543e+002 3.214544e-003 -1.796107e+002 3.905392e-001 1.694563e+002
3.147500e+009 1.516578e-001 -1.567993e+002 2.786247e+001 1.179877e+002 3.833653e-003 1.474090e+002 3.855212e-001 1.678785e+002
3.150000e+009 1.317945e-001 -1.527070e+002 2.789555e+001 1.163485e+002 6.478689e-003 -1.581495e+002 3.937286e-001 1.639448e+002
3.152500e+009 1.631571e-001 -1.563411e+002 2.785966e+001 1.146521e+002 7.188892e-003 -1.917358e+001 4.159881e-001 1.613885e+002
3.155000e+009 1.758801e-001 -1.526675e+002 2.784430e+001 1.130115e+002 1.062148e-002 6.701695e+001 4.074668e-001 1.626461e+002
3.157500e+009 1.720333e-001 -1.530527e+002 2.770825e+001 1.114143e+002 3.220631e-003 5.787998e+001 3.903655e-001 1.589192e+002
3.160000e+009 1.586146e-001 -1.548799e+002 2.758813e+001 1.098237e+002 8.139338e-004 -1.649240e+002 3.910249e-001 1.548712e+002
3.162500e+009 1.835278e-001 -1.596776e+002 2.739156e+001 1.084187e+002 1.607615e-002 2.218839e+001 4.275442e-001 1.500883e+002
3.165000e+009 1.502363e-001 -1.596788e+002 2.727942e+001 1.069732e+002 5.095591e-003 -9.942876e+001 3.933581e-001 1.476071e+002
3.167500e+009 1.565751e-001 -1.563083e+002 2.714956e+001 1.056349e+002 5.729781e-003 -8.934954e-001 4.048283e-001 1.446575e+002
3.170000e+009 1.623916e-001 -1.467553e+002 2.703086e+001 1.041251e+002 1.057909e-002 1.776194e+002 3.984770e-001 1.470409e+002
3.172500e+009 1.671854e-001 -1.559280e+002 2.672593e+001 1.030441e+002 9.168565e-003 1.353667e+002 4.306340e-001 1.442867e+002
3.175000e+009 1.708964e-001 -1.551949e+002 2.665578e+001 1.017350e+002 6.822761e-003 5.855360e+001 4.282463e-001 1.370170e+002
3.177500e+009 1.467343e-001 -1.534556e+002 2.659813e+001 1.005270e+002 1.219118e-002 -9.847897e+001 4.076637e-001 1.337337e+002
3.180000e+009 1.633648e-001 -1.683799e+002 2.647079e+001 9.929969e+001 4.527406e-003 9.441926e+000 4.138585e-001 1.345992e+002
3.182500e+009 1.734594e-001 -1.691846e+002 2.653732e+001 9.823083e+001 1.058432e-002 3.005917e+001 4.204152e-001 1.288540e+002
3.185000e+009 1.739584e-001 -1.682312e+002 2.648898e+001 9.705394e+001 9.397822e-003 6.920921e+001 4.255585e-001 1.246824e+002
3.187500e+009 1.905493e-001 -1.650690e+002 2.644123e+001 9.591892e+001 8.875531e-003 1.317509e+002 4.416406e-001 1.258803e+002
3.190000e+009 1.336176e-001 -1.794125e+002 2.644829e+001 9.445363e+001 1.990659e-002 1.291725e+001 4.193870e-001 1.195488e+002
3.192500e+009 1.777565e-001 -1.573974e+002 2.644562e+001 9.324780e+001 9.475014e-003 -8.801257e+001 4.185286e-001 1.212923e+002
3.195000e+009 1.285560e-001 -1.719282e+002 2.654128e+001 9.165158e+001 1.603511e-002 1.179759e+001 4.242757e-001 1.147231e+002
3.197500e+009 1.886093e-001 -1.673407e+002 2.661184e+001 9.047559e+001 4.685751e-003 -1.528781e+002 4.547090e-001 1.159245e+002
3.200000e+009 1.878576e-001 -1.688992e+002 2.659992e+001 8.897266e+001 1.217525e-003 1.408461e+002 4.580885e-001 1.132256e+002
3.202500e+009 1.414455e-001 -1.715882e+002 2.658887e+001 8.742751e+001 1.103078e-002 2.711517e+001 4.406138e-001 1.104946e+002
3.205000e+009 1.489686e-001 -1.786902e+002 2.655176e+001 8.575243e+001 1.161762e-002 7.493163e+001 4.448851e-001 1.056237e+002
3.207500e+009 1.748893e-001 -1.720354e+002 2.659839e+001 8.432269e+001 1.343879e-003 8.993361e+001 4.763776e-001 1.081509e+002
3.210000e+009 2.103603e-001 -1.735881e+002 2.653559e+001 8.266423e+001 8.971997e-003 -1.504511e+002 4.719251e-001 1.029513e+002
3.212500e+009 1.706124e-001 -1.705317e+002 2.650174e+001 8.099373e+001 6.161977e-003 4.201475e+001 4.799005e-001 1.018703e+002
3.215000e+009 1.546118e-001 -1.620805e+002 2.636164e+001 7.976170e+001 1.176733e-002 2.564702e+001 4.572426e-001 1.034673e+002
3.217500e+009 1.777723e-001 -1.769069e+002 2.622312e+001 7.786494e+001 3.844780e-003 7.221191e+001 4.765969e-001 9.974426e+001
3.220000e+009 1.884531e-001 -1.742311e+002 2.615894e+001 7.633972e+001 1.657931e-003 7.334764e+001 4.827407e-001 1.003659e+002
3.222500e+009 2.242448e-001 -1.775774e+002 2.590304e+001 7.464923e+001 9.536220e-003 -1.216345e+002 5.047979e-001 9.428674e+001
3.225000e+009 2.054571e-001 1.740678e+002 2.553410e+001 7.313972e+001 1.145604e-002 -1.496262e+002 4.971462e-001 8.948744e+001
3.227500e+009 1.621725e-001 1.782695e+002 2.543259e+001 7.182076e+001 6.108502e-003 1.211971e+002 4.858141e-001 9.000935e+001
3.230000e+009 2.123307e-001 -1.786448e+002 2.536686e+001 7.046398e+001 6.749806e-003 -1.258243e+002 5.021387e-001 9.122161e+001
3.232500e+009 1.622902e-001 -1.567238e+002 2.510896e+001 6.990672e+001 1.283365e-002 4.909050e+001 4.533267e-001 8.947771e+001
3.235000e+009 1.470916e-001 -1.633734e+002 2.487323e+001 6.863374e+001 9.061208e-003 8.152319e+001 4.476494e-001 8.521340e+001
3.237500e+009 1.861310e-001 -1.704073e+002 2.473226e+001 6.712298e+001 1.872218e-003 9.165050e+000 4.834448e-001 8.418964e+001
3.240000e+009 2.027156e-001 -1.777815e+002 2.454564e+001 6.620546e+001 6.067861e-003 -8.370171e+001 4.848138e-001 8.089711e+001
3.242500e+009 1.986300e-001 1.690254e+002 2.440179e+001 6.519988e+001 1.072380e-002 -1.126131e+002 4.791405e-001 7.882335e+001
3.245000e+009 2.063932e-001 -1.760288e+002 2.437977e+001 6.395718e+001 5.915465e-003 -3.839809e+001 4.883137e-001 7.924335e+001
3.247500e+009 1.826504e-001 -1.773348e+002 2.430106e+001 6.317777e+001 3.910403e-003 -9.063609e+001 4.817372e-001 7.512551e+001
3.250000e+009 1.947418e-001 -1.749366e+002 2.433276e+001 6.196807e+001 3.907187e-003 -4.423703e+001 4.823651e-001 7.580486e+001
3.252500e+009 1.584973e-001 -1.715033e+002 2.435864e+001 6.093903e+001 1.550183e-003 -1.745318e+002 4.822342e-001 7.388226e+001
3.255000e+009 1.601213e-001 1.583076e+002 2.428432e+001 6.020562e+001 1.787663e-002 -1.231287e+002 4.707416e-001 6.846237e+001
3.257500e+009 1.991369e-001 -1.718489e+002 2.435381e+001 5.882667e+001 5.537179e-003 1.091586e+001 4.918021e-001 7.021957e+001
3.260000e+009 1.521452e-001 1.723467e+002 2.445628e+001 5.740658e+001 7.053596e-003 -1.125349e+002 4.768551e-001 6.929853e+001
3.262500e+009 1.919811e-001 1.719072e+002 2.435570e+001 5.611618e+001 1.126427e-002 -6.357163e+001 4.939374e-001 6.625981e+001
3.265000e+009 1.567419e-001 1.789024e+002 2.450613e+001 5.490746e+001 4.232720e-003 -1.086559e+002 4.839323e-001 6.422222e+001
3.267500e+009 1.161789e-001 -1.727886e+002 2.448061e+001 5.333351e+001 1.021295e-002 -1.577672e+002 4.896937e-001 6.461279e+001
3.270000e+009 1.936460e-001 -1.733027e+002 2.447806e+001 5.204787e+001 3.873661e-003 -7.984367e+000 4.986874e-001 6.262109e+001
3.272500e+009 1.763480e-001 1.766344e+002 2.451681e+001 5.068690e+001 5.512256e-003 -4.501160e+001 4.933072e-001 5.910491e+001
3.275000e+009 1.698033e-001 1.749983e+002 2.449046e+001 4.904865e+001 9.164952e-003 -8.056177e+001 4.884236e-001 5.743371e+001
3.277500e+009 1.471889e-001 -1.726751e+002 2.440722e+001 4.770430e+001 3.738290e-003 -1.256859e+002 5.005965e-001 5.297576e+001
3.280000e+009 1.541354e-001 -1.653740e+002 2.433336e+001 4.614104e+001 8.562498e-003 1.704366e+002 5.019520e-001 5.294258e+001
3.282500e+009 2.224256e-001 1.778446e+002 2.424304e+001 4.477214e+001 8.761434e-003 2.622314e+001 5.082905e-001 4.958595e+001
3.285000e+009 2.197295e-001 -1.704740e+002 2.404115e+001 4.339896e+001 7.588381e-003 9.788214e+001 5.093959e-001 4.841568e+001
3.287500e+009 1.304937e-001 -1.792176e+002 2.397390e+001 4.170609e+001 1.087403e-002 -1.309386e+002 5.078672e-001 4.742025e+001
3.290000e+009 1.439168e-001 1.790297e+002 2.382713e+001 4.054929e+001 8.687962e-003 -1.042633e+002 5.151647e-001 4.440196e+001
3.292500e+009 1.948919e-001 -1.772330e+002 2.373314e+001 3.912163e+001 5.189100e-003 1.325050e+002 5.090283e-001 4.292361e+001
3.295000e+009 2.029861e-001 1.639412e+002 2.372731e+001 3.782377e+001 1.211626e-002 -2.194441e+001 4.974852e-001 3.659509e+001
3.297500e+009 1.634380e-001 1.770831e+002 2.341482e+001 3.672341e+001 7.469081e-003 -1.169291e+002 5.081668e-001 3.944266e+001
3.300000e+009 1.685694e-001 1.707165e+002 2.344870e+001 3.563896e+001 7.531212e-003 -7.638688e+001 5.220695e-001 3.341944e+001
3.302500e+009 1.470997e-001 -1.767417e+002 2.326346e+001 3.447419e+001 1.051417e-002 -1.056516e+002 5.088548e-001 3.456684e+001
3.305000e+009 1.750788e-001 1.753110e+002 2.319579e+001 3.329889e+001 4.085310e-003 -1.193764e+002 5.116450e-001 3.106589e+001
3.307500e+009 1.853543e-001 1.630421e+002 2.315266e+001 3.216636e+001 9.443109e-003 -3.156221e+001 5.268949e-001 3.031117e+001
3.310000e+009 1.909980e-001 -1.784756e+002 2.309381e+001 3.109473e+001 9.547965e-003 -1.552240e+002 5.316972e-001 2.743862e+001
3.312500e+009 2.140599e-001 1.698274e+002 2.305324e+001 2.984232e+001 2.838791e-003 1.283866e+002 5.092005e-001 2.632442e+001
3.315000e+009 1.741127e-001 1.732138e+002 2.295412e+001 2.903052e+001 6.222141e-003 -6.577611e+001 5.324166e-001 2.564572e+001
3.317500e+009 2.031794e-001 1.683114e+002 2.299802e+001 2.754284e+001 3.587482e-003 2.642738e+001 5.237251e-001 2.208985e+001
3.320000e+009 2.153821e-001 -1.796028e+002 2.304269e+001 2.676332e+001 1.274985e-002 -1.369831e+002 5.778275e-001 2.318970e+001
3.322500e+009 2.010494e-001 1.762676e+002 2.305072e+001 2.504503e+001 7.443280e-003 -1.149786e+002 5.246040e-001 1.551234e+001
3.325000e+009 2.022636e-001 1.599234e+002 2.300069e+001 2.371431e+001 1.331246e-002 3.453050e+001 5.210878e-001 1.502268e+001
3.327500e+009 1.955588e-001 1.735781e+002 2.300823e+001 2.282815e+001 7.480940e-003 -5.394582e+001 5.489674e-001 1.855883e+001
3.330000e+009 1.738152e-001 1.693622e+002 2.302537e+001 2.150066e+001 1.052823e-002 -2.054835e+001 5.740644e-001 1.751137e+001
3.332500e+009 2.145105e-001 1.712322e+002 2.296200e+001 1.997486e+001 9.425431e-003 -1.469047e+002 5.547594e-001 1.219682e+001
3.335000e+009 1.935263e-001 1.658443e+002 2.286792e+001 1.863730e+001 7.795247e-003 4.508673e+001 5.308607e-001 9.743579e+000
3.337500e+009 2.031106e-001 1.683633e+002 2.292103e+001 1.726845e+001 3.207577e-003 1.444386e+002 5.521238e-001 9.369377e+000
3.340000e+009 2.342438e-001 1.687443e+002 2.291560e+001 1.555090e+001 1.418514e-002 -1.204249e+002 5.994857e-001 7.815074e+000
3.342500e+009 2.064852e-001 1.702977e+002 2.280874e+001 1.448383e+001 6.424299e-003 -9.263879e+001 5.596289e-001 5.743583e+000
3.345000e+009 1.985648e-001 1.685245e+002 2.277024e+001 1.307700e+001 5.575761e-003 7.194824e+001 5.567175e-001 7.026459e+000
3.347500e+009 2.160354e-001 1.716691e+002 2.264891e+001 1.169412e+001 1.251628e-002 -6.909924e+001 5.917007e-001 4.845632e+000
3.350000e+009 1.975936e-001 1.736666e+002 2.263615e+001 1.026373e+001 1.192300e-002 -8.787813e+000 5.874990e-001 5.543162e+000
3.352500e+009 2.064726e-001 1.598593e+002 2.233546e+001 9.285289e+000 1.015413e-002 -1.305007e+002 5.702801e-001 -3.818623e+000
3.355000e+009 2.050562e-001 1.735967e+002 2.232195e+001 7.929111e+000 3.442309e-003 -2.098803e+001 5.716438e-001 -2.026608e-001
3.357500e+009 1.956501e-001 1.676416e+002 2.220550e+001 6.946405e+000 5.206642e-003 2.707056e+001 5.632796e-001 -3.180053e+000
3.360000e+009 1.913991e-001 1.645424e+002 2.213593e+001 5.603837e+000 5.436824e-003 -1.292747e+002 5.737078e-001 -3.284020e+000
3.362500e+009 2.185328e-001 1.559180e+002 2.200622e+001 4.646163e+000 1.898965e-002 -1.171163e+002 5.727875e-001 -7.456302e+000
3.365000e+009 2.028331e-001 1.719706e+002 2.201392e+001 3.198892e+000 5.723035e-003 -5.053091e+000 5.884460e-001 -4.343178e+000
3.367500e+009 1.823591e-001 1.700524e+002 2.195643e+001 2.343892e+000 1.814638e-003 8.308234e+001 5.748375e-001 -7.161967e+000
3.370000e+009 1.875044e-001 1.645710e+002 2.195337e+001 1.396291e+000 5.115170e-003 -9.062518e+001 5.685021e-001 -9.296368e+000
3.372500e+009 2.031502e-001 1.691028e+002 2.195146e+001 3.118329e-001 5.653044e-003 -5.545921e+001 5.720018e-001 -1.091753e+001
3.375000e+009 1.927670e-001 1.666387e+002 2.200391e+001 -8.499551e-001 1.078682e-003 -1.808228e+001 5.787742e-001 -1.249990e+001
3.377500e+009 2.086821e-001 1.588662e+002 2.197661e+001 -1.974370e+000 1.263768e-002 -8.177960e+001 5.673971e-001 -1.401595e+001
