!Agilent Technologies,E8358A,US40260201,A.04.06
!Agilent E8358A: A.04.06
!Date: Saturday, February 25, 2012 16:39:21
!Correction: S11(Full 2 Port SOLT,1,2) S21(Full 2 Port SOLT,1,2) S12(Full 2 Port SOLT,1,2) S22(Full 2 Port SOLT,1,2) 
!S2P File: Measurements: S11, S21, S12, S22:
# Hz S  MA   R 50
3.000000e+009 2.543167e-001 -1.519304e+002 2.898620e+000 -1.713217e+002 1.988704e-003 6.749647e+001 5.851142e-001 -1.746628e+002
3.002500e+009 2.406688e-001 -1.490443e+002 2.982406e+000 -1.771739e+002 1.795293e-003 7.385442e+001 5.798846e-001 -1.755168e+002
3.005000e+009 2.308331e-001 -1.463330e+002 3.065539e+000 1.770986e+002 2.553691e-003 1.072702e+002 5.739019e-001 -1.757940e+002
3.007500e+009 2.232158e-001 -1.421700e+002 3.144019e+000 1.713271e+002 2.162990e-003 4.962580e+001 5.643542e-001 -1.763105e+002
3.010000e+009 2.154152e-001 -1.385390e+002 3.219733e+000 1.657426e+002 1.944986e-003 9.421512e+001 5.588895e-001 -1.765993e+002
3.012500e+009 2.124499e-001 -1.346060e+002 3.286347e+000 1.600350e+002 3.780572e-003 8.322916e+001 5.527380e-001 -1.768441e+002
3.015000e+009 2.103301e-001 -1.305615e+002 3.345881e+000 1.545595e+002 2.223000e-003 6.828857e+001 5.464430e-001 -1.770857e+002
3.017500e+009 2.095049e-001 -1.252337e+002 3.407579e+000 1.491342e+002 2.418629e-003 6.346578e+001 5.402335e-001 -1.774334e+002
3.020000e+009 2.125149e-001 -1.218749e+002 3.460425e+000 1.439143e+002 2.108192e-003 1.649634e+001 5.346544e-001 -1.775614e+002
3.022500e+009 2.163597e-001 -1.179580e+002 3.520812e+000 1.387545e+002 2.590910e-003 2.292471e+001 5.293564e-001 -1.774806e+002
3.025000e+009 2.187400e-001 -1.149416e+002 3.567291e+000 1.336926e+002 3.909500e-003 3.535460e+001 5.224599e-001 -1.775459e+002
3.027500e+009 2.271267e-001 -1.118779e+002 3.610087e+000 1.287522e+002 3.537191e-003 4.549325e+000 5.186689e-001 -1.779118e+002
3.030000e+009 2.325862e-001 -1.092197e+002 3.654113e+000 1.237475e+002 1.289665e-003 1.587658e+001 5.121006e-001 -1.775067e+002
3.032500e+009 2.414296e-001 -1.068044e+002 3.698714e+000 1.191005e+002 3.133509e-003 1.943676e+001 5.068216e-001 -1.776841e+002
3.035000e+009 2.511631e-001 -1.048400e+002 3.743232e+000 1.144013e+002 4.932162e-003 1.192245e+001 5.041484e-001 -1.776976e+002
3.037500e+009 2.623741e-001 -1.030222e+002 3.790554e+000 1.097428e+002 6.303542e-003 4.718287e+000 5.002522e-001 -1.776523e+002
3.040000e+009 2.702423e-001 -1.016450e+002 3.842940e+000 1.052440e+002 4.212964e-003 -2.158532e+001 4.964722e-001 -1.774845e+002
3.042500e+009 2.813398e-001 -1.008936e+002 3.889296e+000 1.007572e+002 3.270484e-003 1.205769e+001 4.937861e-001 -1.771553e+002
3.045000e+009 2.916431e-001 -1.003647e+002 3.937379e+000 9.636612e+001 2.611384e-003 -1.996363e+001 4.908548e-001 -1.771881e+002
3.047500e+009 3.029454e-001 -9.958215e+001 3.985593e+000 9.193941e+001 2.136917e-003 -4.031440e+001 4.884794e-001 -1.771526e+002
3.050000e+009 3.153137e-001 -9.923495e+001 4.029077e+000 8.773746e+001 4.826863e-003 -5.578780e+000 4.853157e-001 -1.770972e+002
3.052500e+009 3.248525e-001 -9.907936e+001 4.082158e+000 8.342697e+001 2.763195e-003 -6.243213e+001 4.824938e-001 -1.766818e+002
3.055000e+009 3.345596e-001 -9.890799e+001 4.131548e+000 7.912875e+001 3.685487e-003 -1.962375e+001 4.805121e-001 -1.768671e+002
3.057500e+009 3.441032e-001 -9.919791e+001 4.180326e+000 7.493672e+001 4.853792e-003 -3.261630e+001 4.809973e-001 -1.767464e+002
3.060000e+009 3.550660e-001 -9.955931e+001 4.232992e+000 7.085199e+001 3.556996e-003 -6.833405e+001 4.798644e-001 -1.764021e+002
3.062500e+009 3.668822e-001 -9.931048e+001 4.282049e+000 6.669451e+001 5.188207e-003 -3.140523e+001 4.800673e-001 -1.766952e+002
3.065000e+009 3.769515e-001 -9.980811e+001 4.326791e+000 6.242643e+001 5.317604e-003 -2.122462e+001 4.768209e-001 -1.763356e+002
3.067500e+009 3.842615e-001 -1.007616e+002 4.379313e+000 5.847451e+001 5.901742e-003 -6.155302e+001 4.779879e-001 -1.765329e+002
3.070000e+009 3.940133e-001 -1.006806e+002 4.413519e+000 5.424970e+001 3.704116e-003 -5.734581e+001 4.750113e-001 -1.770502e+002
3.072500e+009 4.030495e-001 -1.013771e+002 4.459376e+000 5.025913e+001 3.751399e-003 -5.036136e+001 4.710878e-001 -1.768941e+002
3.075000e+009 4.132591e-001 -1.018081e+002 4.515242e+000 4.611718e+001 5.082814e-003 -7.225067e+001 4.709488e-001 -1.774311e+002
3.077500e+009 4.231772e-001 -1.023529e+002 4.543573e+000 4.223264e+001 4.984491e-003 -5.759132e+001 4.706206e-001 -1.769985e+002
3.080000e+009 4.308853e-001 -1.033609e+002 4.567458e+000 3.807014e+001 5.660289e-003 -5.894473e+001 4.678246e-001 -1.778248e+002
3.082500e+009 4.413248e-001 -1.039622e+002 4.597107e+000 3.418438e+001 3.137362e-003 -7.558871e+001 4.644989e-001 -1.777923e+002
3.085000e+009 4.508722e-001 -1.047433e+002 4.628052e+000 3.022986e+001 4.579606e-003 -4.339252e+001 4.606639e-001 -1.782435e+002
3.087500e+009 4.565684e-001 -1.056990e+002 4.655195e+000 2.642813e+001 5.317382e-003 -7.142670e+001 4.584978e-001 -1.781342e+002
3.090000e+009 4.627104e-001 -1.063572e+002 4.664900e+000 2.264781e+001 4.532503e-003 -6.627077e+001 4.530040e-001 -1.786170e+002
3.092500e+009 4.705514e-001 -1.072216e+002 4.681101e+000 1.887047e+001 3.834347e-003 -4.898911e+001 4.491257e-001 -1.787291e+002
3.095000e+009 4.754566e-001 -1.080669e+002 4.677755e+000 1.525081e+001 5.865331e-003 -8.468269e+001 4.443055e-001 -1.791671e+002
3.097500e+009 4.815284e-001 -1.090830e+002 4.689477e+000 1.167487e+001 2.340445e-003 -5.170277e+001 4.393693e-001 -1.791720e+002
3.100000e+009 4.877813e-001 -1.099301e+002 4.697978e+000 8.319494e+000 3.577047e-003 -5.490064e+001 4.324309e-001 -1.792708e+002
3.102500e+009 4.935301e-001 -1.107193e+002 4.699593e+000 4.913116e+000 3.524619e-003 -8.917458e+001 4.325983e-001 -1.792548e+002
3.105000e+009 4.962765e-001 -1.117278e+002 4.704391e+000 1.724639e+000 2.902006e-003 -7.816363e+001 4.233052e-001 -1.794554e+002
3.107500e+009 4.980603e-001 -1.121971e+002 4.706241e+000 -1.433029e+000 6.184608e-003 -1.001692e+002 4.193390e-001 -1.795805e+002
3.110000e+009 4.977798e-001 -1.130745e+002 4.709569e+000 -4.481808e+000 7.388810e-003 -8.781271e+001 4.129719e-001 -1.797413e+002
3.112500e+009 5.040197e-001 -1.139458e+002 4.726127e+000 -7.525862e+000 4.331030e-003 -1.093551e+002 4.088416e-001 -1.797102e+002
3.115000e+009 5.082443e-001 -1.145799e+002 4.746737e+000 -1.045488e+001 5.774307e-003 -9.475405e+001 4.046026e-001 -1.799174e+002
3.117500e+009 5.064445e-001 -1.153298e+002 4.762098e+000 -1.333440e+001 4.855068e-003 -1.126756e+002 3.980242e-001 1.799618e+002
3.120000e+009 5.092168e-001 -1.156937e+002 4.790988e+000 -1.611912e+001 4.389978e-003 -9.285699e+001 3.954519e-001 1.798953e+002
3.122500e+009 5.091969e-001 -1.168063e+002 4.818217e+000 -1.891483e+001 5.836915e-003 -1.187629e+002 3.887004e-001 1.799900e+002
3.125000e+009 5.091575e-001 -1.170771e+002 4.857026e+000 -2.184217e+001 4.400629e-003 -1.310707e+002 3.839440e-001 1.796322e+002
3.127500e+009 5.127621e-001 -1.177506e+002 4.904856e+000 -2.471537e+001 7.777894e-003 -1.229052e+002 3.780489e-001 1.796187e+002
3.130000e+009 5.110380e-001 -1.183919e+002 4.958877e+000 -2.760248e+001 4.473329e-003 -1.215179e+002 3.715077e-001 1.797061e+002
3.132500e+009 5.152270e-001 -1.189891e+002 5.009879e+000 -3.044597e+001 5.742521e-003 -1.469503e+002 3.683024e-001 1.796465e+002
3.135000e+009 5.153601e-001 -1.197422e+002 5.052657e+000 -3.344545e+001 3.793670e-003 -1.343726e+002 3.624478e-001 1.796282e+002
3.137500e+009 5.167822e-001 -1.205406e+002 5.099005e+000 -3.636852e+001 6.289516e-003 -1.422499e+002 3.564413e-001 1.795234e+002
3.140000e+009 5.184250e-001 -1.213271e+002 5.157572e+000 -3.949619e+001 5.742827e-003 -1.425395e+002 3.523788e-001 1.794543e+002
3.142500e+009 5.174983e-001 -1.217290e+002 5.208543e+000 -4.246938e+001 5.301082e-003 -1.459545e+002 3.471910e-001 1.796476e+002
3.145000e+009 5.180384e-001 -1.223849e+002 5.251312e+000 -4.571768e+001 4.038018e-003 -1.634497e+002 3.407735e-001 1.796114e+002
3.147500e+009 5.187107e-001 -1.230564e+002 5.301252e+000 -4.876930e+001 5.854330e-003 -1.515560e+002 3.369295e-001 1.796221e+002
3.150000e+009 5.179856e-001 -1.240871e+002 5.330127e+000 -5.200253e+001 5.729388e-003 -1.578007e+002 3.314193e-001 1.799132e+002
3.152500e+009 5.189815e-001 -1.244841e+002 5.366813e+000 -5.513618e+001 6.364372e-003 -1.479487e+002 3.250948e-001 -1.799043e+002
3.155000e+009 5.166225e-001 -1.255196e+002 5.381015e+000 -5.823064e+001 5.530274e-003 -1.560390e+002 3.221656e-001 -1.797834e+002
3.157500e+009 5.172119e-001 -1.263496e+002 5.401006e+000 -6.129340e+001 5.378603e-003 -1.696806e+002 3.163569e-001 -1.796473e+002
3.160000e+009 5.157306e-001 -1.271087e+002 5.417629e+000 -6.442417e+001 4.189643e-003 -1.652265e+002 3.123916e-001 -1.794170e+002
3.162500e+009 5.111992e-001 -1.278988e+002 5.429518e+000 -6.728598e+001 4.386508e-003 -1.723017e+002 3.058054e-001 -1.788402e+002
3.165000e+009 5.111004e-001 -1.285523e+002 5.433076e+000 -7.030651e+001 3.322639e-003 -1.595062e+002 3.014142e-001 -1.786258e+002
3.167500e+009 5.076566e-001 -1.295438e+002 5.435777e+000 -7.323617e+001 6.527496e-003 -1.793050e+002 2.988886e-001 -1.780902e+002
3.170000e+009 5.060065e-001 -1.300498e+002 5.436968e+000 -7.601302e+001 6.454633e-003 -1.670890e+002 2.939183e-001 -1.774742e+002
3.172500e+009 5.051153e-001 -1.307772e+002 5.414458e+000 -7.878821e+001 5.608133e-003 -1.586591e+002 2.913900e-001 -1.770100e+002
3.175000e+009 5.020632e-001 -1.314025e+002 5.426199e+000 -8.144720e+001 5.398244e-003 1.650629e+002 2.878549e-001 -1.763868e+002
3.177500e+009 4.977005e-001 -1.320803e+002 5.427839e+000 -8.409969e+001 6.830029e-003 -1.773461e+002 2.828436e-001 -1.755673e+002
3.180000e+009 4.967731e-001 -1.324717e+002 5.427269e+000 -8.660063e+001 6.218477e-003 -1.636228e+002 2.811491e-001 -1.743929e+002
3.182500e+009 4.925926e-001 -1.328099e+002 5.442150e+000 -8.921564e+001 6.072481e-003 -1.799649e+002 2.809025e-001 -1.734583e+002
3.185000e+009 4.923991e-001 -1.335458e+002 5.433897e+000 -9.174866e+001 6.441645e-003 -1.759998e+002 2.771046e-001 -1.726200e+002
3.187500e+009 4.912463e-001 -1.338326e+002 5.458752e+000 -9.409607e+001 5.504043e-003 1.785432e+002 2.783737e-001 -1.711053e+002
3.190000e+009 4.898049e-001 -1.339393e+002 5.463532e+000 -9.667919e+001 7.052065e-003 1.658288e+002 2.771980e-001 -1.703874e+002
3.192500e+009 4.895403e-001 -1.341965e+002 5.490044e+000 -9.904123e+001 7.634990e-003 1.705833e+002 2.787009e-001 -1.690062e+002
3.195000e+009 4.908336e-001 -1.352659e+002 5.521176e+000 -1.015138e+002 7.343240e-003 1.792665e+002 2.793708e-001 -1.680916e+002
3.197500e+009 4.899532e-001 -1.354686e+002 5.538758e+000 -1.039075e+002 6.051195e-003 1.702550e+002 2.810778e-001 -1.669143e+002
3.200000e+009 4.924847e-001 -1.361011e+002 5.574575e+000 -1.065216e+002 4.681131e-003 1.634206e+002 2.821501e-001 -1.663226e+002
3.202500e+009 4.909706e-001 -1.364768e+002 5.598416e+000 -1.089690e+002 6.574289e-003 1.493652e+002 2.892634e-001 -1.647115e+002
3.205000e+009 4.876028e-001 -1.369730e+002 5.612421e+000 -1.116294e+002 4.081806e-003 1.593207e+002 2.895016e-001 -1.642665e+002
3.207500e+009 4.880203e-001 -1.371231e+002 5.643357e+000 -1.141509e+002 6.897643e-003 1.634704e+002 2.927652e-001 -1.629833e+002
3.210000e+009 4.931809e-001 -1.378223e+002 5.684167e+000 -1.167745e+002 6.929897e-003 1.522353e+002 2.988870e-001 -1.627685e+002
3.212500e+009 4.917149e-001 -1.388035e+002 5.705777e+000 -1.194786e+002 6.019623e-003 1.284412e+002 3.008910e-001 -1.620686e+002
3.215000e+009 4.889061e-001 -1.393972e+002 5.725722e+000 -1.220605e+002 4.802737e-003 1.374391e+002 3.041311e-001 -1.612633e+002
3.217500e+009 4.925978e-001 -1.398173e+002 5.733690e+000 -1.246891e+002 8.094515e-003 1.447097e+002 3.147787e-001 -1.608541e+002
3.220000e+009 4.885380e-001 -1.401011e+002 5.744721e+000 -1.274137e+002 7.971635e-003 1.428767e+002 3.188723e-001 -1.600440e+002
3.222500e+009 4.826479e-001 -1.409358e+002 5.743389e+000 -1.300047e+002 7.619875e-003 1.340680e+002 3.211659e-001 -1.596679e+002
3.225000e+009 4.865896e-001 -1.413716e+002 5.752812e+000 -1.326667e+002 8.854980e-003 1.408888e+002 3.279388e-001 -1.597995e+002
3.227500e+009 4.826692e-001 -1.416606e+002 5.750370e+000 -1.352098e+002 7.598851e-003 1.353149e+002 3.331814e-001 -1.587697e+002
3.230000e+009 4.737648e-001 -1.420934e+002 5.721914e+000 -1.377917e+002 2.658405e-003 1.043387e+002 3.390180e-001 -1.583803e+002
3.232500e+009 4.724653e-001 -1.427045e+002 5.723448e+000 -1.402555e+002 6.979262e-003 1.194725e+002 3.451605e-001 -1.582752e+002
3.235000e+009 4.763164e-001 -1.429768e+002 5.702519e+000 -1.426895e+002 7.257525e-003 1.407383e+002 3.536040e-001 -1.585087e+002
3.237500e+009 4.711553e-001 -1.433691e+002 5.689738e+000 -1.452431e+002 6.109022e-003 1.284435e+002 3.581590e-001 -1.583131e+002
3.240000e+009 4.685228e-001 -1.436364e+002 5.655632e+000 -1.475439e+002 5.840252e-003 1.398339e+002 3.640601e-001 -1.583490e+002
3.242500e+009 4.687603e-001 -1.440407e+002 5.631587e+000 -1.499064e+002 6.973641e-003 1.442209e+002 3.690032e-001 -1.586822e+002
3.245000e+009 4.656442e-001 -1.442754e+002 5.622776e+000 -1.522076e+002 7.008941e-003 1.156140e+002 3.744165e-001 -1.583194e+002
3.247500e+009 4.626631e-001 -1.448509e+002 5.591383e+000 -1.543371e+002 7.411157e-003 1.112948e+002 3.794603e-001 -1.585528e+002
3.250000e+009 4.599717e-001 -1.451784e+002 5.577082e+000 -1.565809e+002 9.117825e-003 1.249913e+002 3.846632e-001 -1.587598e+002
3.252500e+009 4.598636e-001 -1.450501e+002 5.560469e+000 -1.586254e+002 6.327812e-003 1.202252e+002 3.908267e-001 -1.593698e+002
3.255000e+009 4.577779e-001 -1.454850e+002 5.538134e+000 -1.605942e+002 7.329262e-003 1.047630e+002 3.931572e-001 -1.594937e+002
3.257500e+009 4.582894e-001 -1.455983e+002 5.538770e+000 -1.625922e+002 5.694078e-003 1.013594e+002 3.980829e-001 -1.600309e+002
3.260000e+009 4.595556e-001 -1.465161e+002 5.514633e+000 -1.646984e+002 7.354828e-003 1.120683e+002 4.012251e-001 -1.603013e+002
3.262500e+009 4.566045e-001 -1.467803e+002 5.506874e+000 -1.667461e+002 6.096461e-003 1.039534e+002 4.044815e-001 -1.606264e+002
3.265000e+009 4.565416e-001 -1.472647e+002 5.515174e+000 -1.686343e+002 7.425467e-003 9.822776e+001 4.075245e-001 -1.612186e+002
3.267500e+009 4.581647e-001 -1.482239e+002 5.507475e+000 -1.706488e+002 6.682157e-003 1.147040e+002 4.102519e-001 -1.613174e+002
3.270000e+009 4.544445e-001 -1.489236e+002 5.505987e+000 -1.725777e+002 8.814944e-003 1.026832e+002 4.121409e-001 -1.615441e+002
3.272500e+009 4.546245e-001 -1.497334e+002 5.518726e+000 -1.746857e+002 9.155931e-003 9.893606e+001 4.166049e-001 -1.616478e+002
3.275000e+009 4.547457e-001 -1.499817e+002 5.522443e+000 -1.766207e+002 8.256514e-003 8.967873e+001 4.164984e-001 -1.619201e+002
3.277500e+009 4.509508e-001 -1.509404e+002 5.520217e+000 -1.786525e+002 6.847717e-003 8.976965e+001 4.186067e-001 -1.626133e+002
3.280000e+009 4.479015e-001 -1.524364e+002 5.522651e+000 1.793618e+002 8.225798e-003 9.670116e+001 4.222741e-001 -1.625167e+002
3.282500e+009 4.476359e-001 -1.527634e+002 5.541482e+000 1.774079e+002 7.915605e-003 9.137649e+001 4.241954e-001 -1.629729e+002
3.285000e+009 4.461782e-001 -1.542769e+002 5.542640e+000 1.752766e+002 6.700996e-003 1.046853e+002 4.274233e-001 -1.632870e+002
3.287500e+009 4.420470e-001 -1.544156e+002 5.550346e+000 1.732369e+002 7.998062e-003 9.116730e+001 4.291734e-001 -1.636502e+002
3.290000e+009 4.382919e-001 -1.552196e+002 5.557069e+000 1.711857e+002 8.341590e-003 8.882372e+001 4.335177e-001 -1.641032e+002
3.292500e+009 4.384328e-001 -1.557220e+002 5.560033e+000 1.691152e+002 1.007448e-002 7.454472e+001 4.347267e-001 -1.645855e+002
3.295000e+009 4.372979e-001 -1.566909e+002 5.563880e+000 1.671277e+002 7.635653e-003 6.122868e+001 4.361443e-001 -1.650517e+002
3.297500e+009 4.305701e-001 -1.572283e+002 5.564942e+000 1.651076e+002 8.775708e-003 6.636018e+001 4.395573e-001 -1.656673e+002
3.300000e+009 4.266063e-001 -1.579960e+002 5.559067e+000 1.630112e+002 8.626224e-003 8.196304e+001 4.414900e-001 -1.663583e+002
3.302500e+009 4.240386e-001 -1.590149e+002 5.564718e+000 1.611283e+002 7.413458e-003 8.375491e+001 4.436942e-001 -1.671604e+002
3.305000e+009 4.214403e-001 -1.589759e+002 5.552177e+000 1.590062e+002 7.820738e-003 7.637916e+001 4.452483e-001 -1.677099e+002
3.307500e+009 4.193741e-001 -1.601967e+002 5.562396e+000 1.570948e+002 5.570066e-003 7.509105e+001 4.472046e-001 -1.684637e+002
3.310000e+009 4.150429e-001 -1.600768e+002 5.552610e+000 1.551358e+002 8.543955e-003 8.320820e+001 4.470480e-001 -1.694850e+002
3.312500e+009 4.152375e-001 -1.613372e+002 5.547469e+000 1.532153e+002 5.645213e-003 6.777214e+001 4.492278e-001 -1.702184e+002
3.315000e+009 4.134476e-001 -1.617360e+002 5.541153e+000 1.512697e+002 7.611224e-003 5.982094e+001 4.490676e-001 -1.710511e+002
3.317500e+009 4.101355e-001 -1.621028e+002 5.538682e+000 1.493956e+002 6.581600e-003 6.691923e+001 4.481975e-001 -1.718379e+002
3.320000e+009 4.116035e-001 -1.627598e+002 5.543601e+000 1.474746e+002 8.207349e-003 7.106752e+001 4.476114e-001 -1.727124e+002
3.322500e+009 4.097477e-001 -1.631092e+002 5.532696e+000 1.456721e+002 7.995368e-003 6.814692e+001 4.486538e-001 -1.733843e+002
3.325000e+009 4.096383e-001 -1.642497e+002 5.543808e+000 1.437365e+002 9.436238e-003 5.600411e+001 4.460244e-001 -1.740629e+002
3.327500e+009 4.077398e-001 -1.649276e+002 5.534018e+000 1.418705e+002 9.130536e-003 6.862673e+001 4.443384e-001 -1.748844e+002
3.330000e+009 4.041385e-001 -1.656429e+002 5.530883e+000 1.400566e+002 6.607378e-003 5.224836e+001 4.476886e-001 -1.758211e+002
3.332500e+009 4.015703e-001 -1.666540e+002 5.543013e+000 1.381587e+002 9.123237e-003 4.745416e+001 4.457487e-001 -1.764818e+002
3.335000e+009 3.992898e-001 -1.672712e+002 5.541911e+000 1.363978e+002 8.461047e-003 5.489755e+001 4.442711e-001 -1.771604e+002
3.337500e+009 3.954318e-001 -1.683168e+002 5.548945e+000 1.345462e+002 8.048213e-003 4.545653e+001 4.455732e-001 -1.777255e+002
3.340000e+009 3.904847e-001 -1.686250e+002 5.554659e+000 1.327715e+002 9.244311e-003 4.807766e+001 4.437305e-001 -1.783347e+002
3.342500e+009 3.864730e-001 -1.693988e+002 5.563652e+000 1.308841e+002 7.164901e-003 4.351524e+001 4.440128e-001 -1.791856e+002
3.345000e+009 3.842150e-001 -1.703403e+002 5.577894e+000 1.290262e+002 7.574083e-003 4.461146e+001 4.458160e-001 -1.798837e+002
3.347500e+009 3.785604e-001 -1.712073e+002 5.580029e+000 1.272032e+002 7.739569e-003 4.513154e+001 4.441424e-001 1.792126e+002
3.350000e+009 3.729936e-001 -1.720636e+002 5.582109e+000 1.253516e+002 8.182443e-003 4.126332e+001 4.444796e-001 1.785471e+002
3.352500e+009 3.683583e-001 -1.725464e+002 5.597182e+000 1.235401e+002 9.837186e-003 3.703455e+001 4.456980e-001 1.780539e+002
3.355000e+009 3.613774e-001 -1.733864e+002 5.593464e+000 1.216389e+002 9.470209e-003 3.616118e+001 4.462085e-001 1.772048e+002
3.357500e+009 3.578852e-001 -1.739424e+002 5.605307e+000 1.198032e+002 9.118281e-003 2.576307e+001 4.463746e-001 1.765345e+002
3.360000e+009 3.517306e-001 -1.745421e+002 5.602284e+000 1.178399e+002 8.494166e-003 3.054286e+001 4.457508e-001 1.757647e+002
3.362500e+009 3.471983e-001 -1.748922e+002 5.615256e+000 1.159450e+002 8.037726e-003 3.590839e+001 4.446145e-001 1.750687e+002
3.365000e+009 3.420803e-001 -1.758171e+002 5.619380e+000 1.140390e+002 7.936000e-003 3.246122e+001 4.443903e-001 1.741570e+002
3.367500e+009 3.364239e-001 -1.767849e+002 5.632890e+000 1.122516e+002 8.061368e-003 3.929436e+001 4.448739e-001 1.736024e+002
3.370000e+009 3.332459e-001 -1.775369e+002 5.628397e+000 1.103320e+002 6.434864e-003 4.465855e+001 4.434112e-001 1.730369e+002
3.372500e+009 3.255862e-001 -1.783363e+002 5.617583e+000 1.084687e+002 1.005012e-002 2.836862e+001 4.428062e-001 1.719987e+002
3.375000e+009 3.224579e-001 -1.784808e+002 5.631310e+000 1.065750e+002 9.236441e-003 1.931354e+001 4.435310e-001 1.711950e+002
