!Agilent Technologies,E8358A,US40260201,A.04.06
!Agilent E8358A: A.04.06
!Date: Thursday, February 16, 2012 11:40:28
!Correction: S11(Full 1 Port,1) S21(Off) S12(Off) S22(Off) 
!S2P File: Measurements: S11, S21, S12, S22:
# Hz S  MA   R 50
3.000000e+009 9.286703e-001 -1.794312e+002 1.000000e-010 4.500000e+001 1.000000e-010 4.500000e+001 1.000000e-010 4.500000e+001
3.001250e+009 9.278208e-001 -1.794939e+002 1.000000e-010 4.500000e+001 1.000000e-010 4.500000e+001 1.000000e-010 4.500000e+001
3.002500e+009 9.274018e-001 -1.795473e+002 1.000000e-010 4.500000e+001 1.000000e-010 4.500000e+001 1.000000e-010 4.500000e+001
3.003750e+009 9.294084e-001 -1.797581e+002 1.000000e-010 4.500000e+001 1.000000e-010 4.500000e+001 1.000000e-010 4.500000e+001
3.005000e+009 9.262753e-001 -1.798257e+002 1.000000e-010 4.500000e+001 1.000000e-010 4.500000e+001 1.000000e-010 4.500000e+001
3.006250e+009 9.257048e-001 -1.799702e+002 1.000000e-010 4.500000e+001 1.000000e-010 4.500000e+001 1.000000e-010 4.500000e+001
3.007500e+009 9.261152e-001 1.799150e+002 1.000000e-010 4.500000e+001 1.000000e-010 4.500000e+001 1.000000e-010 4.500000e+001
3.008750e+009 9.261823e-001 1.797489e+002 1.000000e-010 4.500000e+001 1.000000e-010 4.500000e+001 1.000000e-010 4.500000e+001
3.010000e+009 9.258230e-001 1.796327e+002 1.000000e-010 4.500000e+001 1.000000e-010 4.500000e+001 1.000000e-010 4.500000e+001
3.011250e+009 9.252648e-001 1.794447e+002 1.000000e-010 4.500000e+001 1.000000e-010 4.500000e+001 1.000000e-010 4.500000e+001
3.012500e+009 9.238413e-001 1.791900e+002 1.000000e-010 4.500000e+001 1.000000e-010 4.500000e+001 1.000000e-010 4.500000e+001
3.013750e+009 9.244435e-001 1.791451e+002 1.000000e-010 4.500000e+001 1.000000e-010 4.500000e+001 1.000000e-010 4.500000e+001
3.015000e+009 9.239488e-001 1.790330e+002 1.000000e-010 4.500000e+001 1.000000e-010 4.500000e+001 1.000000e-010 4.500000e+001
3.016250e+009 9.241328e-001 1.787782e+002 1.000000e-010 4.500000e+001 1.000000e-010 4.500000e+001 1.000000e-010 4.500000e+001
3.017500e+009 9.229612e-001 1.786724e+002 1.000000e-010 4.500000e+001 1.000000e-010 4.500000e+001 1.000000e-010 4.500000e+001
3.018750e+009 9.224904e-001 1.785032e+002 1.000000e-010 4.500000e+001 1.000000e-010 4.500000e+001 1.000000e-010 4.500000e+001
3.020000e+009 9.226235e-001 1.781886e+002 1.000000e-010 4.500000e+001 1.000000e-010 4.500000e+001 1.000000e-010 4.500000e+001
3.021250e+009 9.231346e-001 1.780450e+002 1.000000e-010 4.500000e+001 1.000000e-010 4.500000e+001 1.000000e-010 4.500000e+001
3.022500e+009 9.216791e-001 1.778879e+002 1.000000e-010 4.500000e+001 1.000000e-010 4.500000e+001 1.000000e-010 4.500000e+001
3.023750e+009 9.212312e-001 1.776210e+002 1.000000e-010 4.500000e+001 1.000000e-010 4.500000e+001 1.000000e-010 4.500000e+001
3.025000e+009 9.209130e-001 1.775626e+002 1.000000e-010 4.500000e+001 1.000000e-010 4.500000e+001 1.000000e-010 4.500000e+001
3.026250e+009 9.201334e-001 1.771904e+002 1.000000e-010 4.500000e+001 1.000000e-010 4.500000e+001 1.000000e-010 4.500000e+001
3.027500e+009 9.200782e-001 1.770609e+002 1.000000e-010 4.500000e+001 1.000000e-010 4.500000e+001 1.000000e-010 4.500000e+001
3.028750e+009 9.196131e-001 1.768586e+002 1.000000e-010 4.500000e+001 1.000000e-010 4.500000e+001 1.000000e-010 4.500000e+001
3.030000e+009 9.207655e-001 1.767059e+002 1.000000e-010 4.500000e+001 1.000000e-010 4.500000e+001 1.000000e-010 4.500000e+001
3.031250e+009 9.188920e-001 1.764786e+002 1.000000e-010 4.500000e+001 1.000000e-010 4.500000e+001 1.000000e-010 4.500000e+001
3.032500e+009 9.188308e-001 1.762546e+002 1.000000e-010 4.500000e+001 1.000000e-010 4.500000e+001 1.000000e-010 4.500000e+001
3.033750e+009 9.187664e-001 1.760200e+002 1.000000e-010 4.500000e+001 1.000000e-010 4.500000e+001 1.000000e-010 4.500000e+001
3.035000e+009 9.187070e-001 1.758356e+002 1.000000e-010 4.500000e+001 1.000000e-010 4.500000e+001 1.000000e-010 4.500000e+001
3.036250e+009 9.175507e-001 1.755266e+002 1.000000e-010 4.500000e+001 1.000000e-010 4.500000e+001 1.000000e-010 4.500000e+001
3.037500e+009 9.176117e-001 1.753582e+002 1.000000e-010 4.500000e+001 1.000000e-010 4.500000e+001 1.000000e-010 4.500000e+001
3.038750e+009 9.183763e-001 1.752028e+002 1.000000e-010 4.500000e+001 1.000000e-010 4.500000e+001 1.000000e-010 4.500000e+001
3.040000e+009 9.175192e-001 1.750355e+002 1.000000e-010 4.500000e+001 1.000000e-010 4.500000e+001 1.000000e-010 4.500000e+001
3.041250e+009 9.181764e-001 1.747449e+002 1.000000e-010 4.500000e+001 1.000000e-010 4.500000e+001 1.000000e-010 4.500000e+001
3.042500e+009 9.188440e-001 1.745115e+002 1.000000e-010 4.500000e+001 1.000000e-010 4.500000e+001 1.000000e-010 4.500000e+001
3.043750e+009 9.166635e-001 1.743289e+002 1.000000e-010 4.500000e+001 1.000000e-010 4.500000e+001 1.000000e-010 4.500000e+001
3.045000e+009 9.181952e-001 1.740735e+002 1.000000e-010 4.500000e+001 1.000000e-010 4.500000e+001 1.000000e-010 4.500000e+001
3.046250e+009 9.162219e-001 1.738793e+002 1.000000e-010 4.500000e+001 1.000000e-010 4.500000e+001 1.000000e-010 4.500000e+001
3.047500e+009 9.176198e-001 1.737867e+002 1.000000e-010 4.500000e+001 1.000000e-010 4.500000e+001 1.000000e-010 4.500000e+001
3.048750e+009 9.172809e-001 1.734630e+002 1.000000e-010 4.500000e+001 1.000000e-010 4.500000e+001 1.000000e-010 4.500000e+001
3.050000e+009 9.169721e-001 1.733038e+002 1.000000e-010 4.500000e+001 1.000000e-010 4.500000e+001 1.000000e-010 4.500000e+001
3.051250e+009 9.179075e-001 1.731668e+002 1.000000e-010 4.500000e+001 1.000000e-010 4.500000e+001 1.000000e-010 4.500000e+001
3.052500e+009 9.171439e-001 1.728865e+002 1.000000e-010 4.500000e+001 1.000000e-010 4.500000e+001 1.000000e-010 4.500000e+001
3.053750e+009 9.165090e-001 1.727738e+002 1.000000e-010 4.500000e+001 1.000000e-010 4.500000e+001 1.000000e-010 4.500000e+001
3.055000e+009 9.172695e-001 1.725181e+002 1.000000e-010 4.500000e+001 1.000000e-010 4.500000e+001 1.000000e-010 4.500000e+001
3.056250e+009 9.171981e-001 1.723343e+002 1.000000e-010 4.500000e+001 1.000000e-010 4.500000e+001 1.000000e-010 4.500000e+001
3.057500e+009 9.167143e-001 1.722276e+002 1.000000e-010 4.500000e+001 1.000000e-010 4.500000e+001 1.000000e-010 4.500000e+001
3.058750e+009 9.179345e-001 1.719940e+002 1.000000e-010 4.500000e+001 1.000000e-010 4.500000e+001 1.000000e-010 4.500000e+001
3.060000e+009 9.160138e-001 1.718183e+002 1.000000e-010 4.500000e+001 1.000000e-010 4.500000e+001 1.000000e-010 4.500000e+001
3.061250e+009 9.185235e-001 1.716434e+002 1.000000e-010 4.500000e+001 1.000000e-010 4.500000e+001 1.000000e-010 4.500000e+001
3.062500e+009 9.174597e-001 1.713709e+002 1.000000e-010 4.500000e+001 1.000000e-010 4.500000e+001 1.000000e-010 4.500000e+001
3.063750e+009 9.168821e-001 1.713943e+002 1.000000e-010 4.500000e+001 1.000000e-010 4.500000e+001 1.000000e-010 4.500000e+001
3.065000e+009 9.177713e-001 1.711833e+002 1.000000e-010 4.500000e+001 1.000000e-010 4.500000e+001 1.000000e-010 4.500000e+001
3.066250e+009 9.172949e-001 1.710179e+002 1.000000e-010 4.500000e+001 1.000000e-010 4.500000e+001 1.000000e-010 4.500000e+001
3.067500e+009 9.167163e-001 1.709078e+002 1.000000e-010 4.500000e+001 1.000000e-010 4.500000e+001 1.000000e-010 4.500000e+001
3.068750e+009 9.168099e-001 1.707445e+002 1.000000e-010 4.500000e+001 1.000000e-010 4.500000e+001 1.000000e-010 4.500000e+001
3.070000e+009 9.174495e-001 1.706803e+002 1.000000e-010 4.500000e+001 1.000000e-010 4.500000e+001 1.000000e-010 4.500000e+001
3.071250e+009 9.161463e-001 1.705009e+002 1.000000e-010 4.500000e+001 1.000000e-010 4.500000e+001 1.000000e-010 4.500000e+001
3.072500e+009 9.172077e-001 1.703185e+002 1.000000e-010 4.500000e+001 1.000000e-010 4.500000e+001 1.000000e-010 4.500000e+001
3.073750e+009 9.162719e-001 1.702358e+002 1.000000e-010 4.500000e+001 1.000000e-010 4.500000e+001 1.000000e-010 4.500000e+001
3.075000e+009 9.159495e-001 1.701130e+002 1.000000e-010 4.500000e+001 1.000000e-010 4.500000e+001 1.000000e-010 4.500000e+001
3.076250e+009 9.173955e-001 1.700095e+002 1.000000e-010 4.500000e+001 1.000000e-010 4.500000e+001 1.000000e-010 4.500000e+001
3.077500e+009 9.166326e-001 1.698907e+002 1.000000e-010 4.500000e+001 1.000000e-010 4.500000e+001 1.000000e-010 4.500000e+001
3.078750e+009 9.176440e-001 1.697620e+002 1.000000e-010 4.500000e+001 1.000000e-010 4.500000e+001 1.000000e-010 4.500000e+001
3.080000e+009 9.152789e-001 1.696314e+002 1.000000e-010 4.500000e+001 1.000000e-010 4.500000e+001 1.000000e-010 4.500000e+001
3.081250e+009 9.162074e-001 1.695167e+002 1.000000e-010 4.500000e+001 1.000000e-010 4.500000e+001 1.000000e-010 4.500000e+001
3.082500e+009 9.165627e-001 1.694630e+002 1.000000e-010 4.500000e+001 1.000000e-010 4.500000e+001 1.000000e-010 4.500000e+001
3.083750e+009 9.165301e-001 1.694066e+002 1.000000e-010 4.500000e+001 1.000000e-010 4.500000e+001 1.000000e-010 4.500000e+001
3.085000e+009 9.167238e-001 1.691698e+002 1.000000e-010 4.500000e+001 1.000000e-010 4.500000e+001 1.000000e-010 4.500000e+001
3.086250e+009 9.168994e-001 1.690106e+002 1.000000e-010 4.500000e+001 1.000000e-010 4.500000e+001 1.000000e-010 4.500000e+001
3.087500e+009 9.159678e-001 1.689743e+002 1.000000e-010 4.500000e+001 1.000000e-010 4.500000e+001 1.000000e-010 4.500000e+001
3.088750e+009 9.166736e-001 1.689424e+002 1.000000e-010 4.500000e+001 1.000000e-010 4.500000e+001 1.000000e-010 4.500000e+001
3.090000e+009 9.162959e-001 1.688080e+002 1.000000e-010 4.500000e+001 1.000000e-010 4.500000e+001 1.000000e-010 4.500000e+001
3.091250e+009 9.145792e-001 1.686999e+002 1.000000e-010 4.500000e+001 1.000000e-010 4.500000e+001 1.000000e-010 4.500000e+001
3.092500e+009 9.152581e-001 1.686095e+002 1.000000e-010 4.500000e+001 1.000000e-010 4.500000e+001 1.000000e-010 4.500000e+001
3.093750e+009 9.149017e-001 1.685561e+002 1.000000e-010 4.500000e+001 1.000000e-010 4.500000e+001 1.000000e-010 4.500000e+001
3.095000e+009 9.139988e-001 1.685158e+002 1.000000e-010 4.500000e+001 1.000000e-010 4.500000e+001 1.000000e-010 4.500000e+001
3.096250e+009 9.152794e-001 1.683067e+002 1.000000e-010 4.500000e+001 1.000000e-010 4.500000e+001 1.000000e-010 4.500000e+001
3.097500e+009 9.127896e-001 1.682519e+002 1.000000e-010 4.500000e+001 1.000000e-010 4.500000e+001 1.000000e-010 4.500000e+001
3.098750e+009 9.125217e-001 1.682012e+002 1.000000e-010 4.500000e+001 1.000000e-010 4.500000e+001 1.000000e-010 4.500000e+001
3.100000e+009 9.136174e-001 1.679941e+002 1.000000e-010 4.500000e+001 1.000000e-010 4.500000e+001 1.000000e-010 4.500000e+001
3.101250e+009 9.122446e-001 1.678936e+002 1.000000e-010 4.500000e+001 1.000000e-010 4.500000e+001 1.000000e-010 4.500000e+001
3.102500e+009 9.124401e-001 1.679335e+002 1.000000e-010 4.500000e+001 1.000000e-010 4.500000e+001 1.000000e-010 4.500000e+001
3.103750e+009 9.106857e-001 1.677940e+002 1.000000e-010 4.500000e+001 1.000000e-010 4.500000e+001 1.000000e-010 4.500000e+001
3.105000e+009 9.105959e-001 1.676096e+002 1.000000e-010 4.500000e+001 1.000000e-010 4.500000e+001 1.000000e-010 4.500000e+001
3.106250e+009 9.105269e-001 1.674346e+002 1.000000e-010 4.500000e+001 1.000000e-010 4.500000e+001 1.000000e-010 4.500000e+001
3.107500e+009 9.096214e-001 1.674001e+002 1.000000e-010 4.500000e+001 1.000000e-010 4.500000e+001 1.000000e-010 4.500000e+001
3.108750e+009 9.087068e-001 1.672597e+002 1.000000e-010 4.500000e+001 1.000000e-010 4.500000e+001 1.000000e-010 4.500000e+001
3.110000e+009 9.093431e-001 1.671267e+002 1.000000e-010 4.500000e+001 1.000000e-010 4.500000e+001 1.000000e-010 4.500000e+001
3.111250e+009 9.073444e-001 1.670329e+002 1.000000e-010 4.500000e+001 1.000000e-010 4.500000e+001 1.000000e-010 4.500000e+001
3.112500e+009 9.082507e-001 1.668797e+002 1.000000e-010 4.500000e+001 1.000000e-010 4.500000e+001 1.000000e-010 4.500000e+001
3.113750e+009 9.063318e-001 1.666965e+002 1.000000e-010 4.500000e+001 1.000000e-010 4.500000e+001 1.000000e-010 4.500000e+001
3.115000e+009 9.061362e-001 1.666161e+002 1.000000e-010 4.500000e+001 1.000000e-010 4.500000e+001 1.000000e-010 4.500000e+001
3.116250e+009 9.057178e-001 1.664285e+002 1.000000e-010 4.500000e+001 1.000000e-010 4.500000e+001 1.000000e-010 4.500000e+001
3.117500e+009 9.053000e-001 1.662978e+002 1.000000e-010 4.500000e+001 1.000000e-010 4.500000e+001 1.000000e-010 4.500000e+001
3.118750e+009 9.045202e-001 1.660830e+002 1.000000e-010 4.500000e+001 1.000000e-010 4.500000e+001 1.000000e-010 4.500000e+001
3.120000e+009 9.031269e-001 1.659117e+002 1.000000e-010 4.500000e+001 1.000000e-010 4.500000e+001 1.000000e-010 4.500000e+001
3.121250e+009 9.024075e-001 1.658268e+002 1.000000e-010 4.500000e+001 1.000000e-010 4.500000e+001 1.000000e-010 4.500000e+001
3.122500e+009 9.016827e-001 1.655934e+002 1.000000e-010 4.500000e+001 1.000000e-010 4.500000e+001 1.000000e-010 4.500000e+001
3.123750e+009 9.023427e-001 1.653913e+002 1.000000e-010 4.500000e+001 1.000000e-010 4.500000e+001 1.000000e-010 4.500000e+001
3.125000e+009 9.004117e-001 1.652363e+002 1.000000e-010 4.500000e+001 1.000000e-010 4.500000e+001 1.000000e-010 4.500000e+001
3.126250e+009 9.002643e-001 1.650329e+002 1.000000e-010 4.500000e+001 1.000000e-010 4.500000e+001 1.000000e-010 4.500000e+001
3.127500e+009 8.991301e-001 1.648245e+002 1.000000e-010 4.500000e+001 1.000000e-010 4.500000e+001 1.000000e-010 4.500000e+001
3.128750e+009 8.997712e-001 1.646273e+002 1.000000e-010 4.500000e+001 1.000000e-010 4.500000e+001 1.000000e-010 4.500000e+001
3.130000e+009 8.980878e-001 1.644188e+002 1.000000e-010 4.500000e+001 1.000000e-010 4.500000e+001 1.000000e-010 4.500000e+001
3.131250e+009 8.968291e-001 1.642348e+002 1.000000e-010 4.500000e+001 1.000000e-010 4.500000e+001 1.000000e-010 4.500000e+001
3.132500e+009 8.967668e-001 1.639447e+002 1.000000e-010 4.500000e+001 1.000000e-010 4.500000e+001 1.000000e-010 4.500000e+001
3.133750e+009 8.967645e-001 1.637407e+002 1.000000e-010 4.500000e+001 1.000000e-010 4.500000e+001 1.000000e-010 4.500000e+001
3.135000e+009 8.958730e-001 1.635472e+002 1.000000e-010 4.500000e+001 1.000000e-010 4.500000e+001 1.000000e-010 4.500000e+001
3.136250e+009 8.951475e-001 1.632649e+002 1.000000e-010 4.500000e+001 1.000000e-010 4.500000e+001 1.000000e-010 4.500000e+001
3.137500e+009 8.954614e-001 1.630396e+002 1.000000e-010 4.500000e+001 1.000000e-010 4.500000e+001 1.000000e-010 4.500000e+001
3.138750e+009 8.944038e-001 1.628341e+002 1.000000e-010 4.500000e+001 1.000000e-010 4.500000e+001 1.000000e-010 4.500000e+001
3.140000e+009 8.946850e-001 1.626136e+002 1.000000e-010 4.500000e+001 1.000000e-010 4.500000e+001 1.000000e-010 4.500000e+001
3.141250e+009 8.925775e-001 1.622659e+002 1.000000e-010 4.500000e+001 1.000000e-010 4.500000e+001 1.000000e-010 4.500000e+001
3.142500e+009 8.922303e-001 1.620968e+002 1.000000e-010 4.500000e+001 1.000000e-010 4.500000e+001 1.000000e-010 4.500000e+001
3.143750e+009 8.919411e-001 1.617619e+002 1.000000e-010 4.500000e+001 1.000000e-010 4.500000e+001 1.000000e-010 4.500000e+001
3.145000e+009 8.910798e-001 1.616135e+002 1.000000e-010 4.500000e+001 1.000000e-010 4.500000e+001 1.000000e-010 4.500000e+001
3.146250e+009 8.904803e-001 1.614097e+002 1.000000e-010 4.500000e+001 1.000000e-010 4.500000e+001 1.000000e-010 4.500000e+001
3.147500e+009 8.900877e-001 1.610769e+002 1.000000e-010 4.500000e+001 1.000000e-010 4.500000e+001 1.000000e-010 4.500000e+001
3.148750e+009 8.897702e-001 1.608296e+002 1.000000e-010 4.500000e+001 1.000000e-010 4.500000e+001 1.000000e-010 4.500000e+001
3.150000e+009 8.890186e-001 1.605929e+002 1.000000e-010 4.500000e+001 1.000000e-010 4.500000e+001 1.000000e-010 4.500000e+001
3.151250e+009 8.873976e-001 1.603494e+002 1.000000e-010 4.500000e+001 1.000000e-010 4.500000e+001 1.000000e-010 4.500000e+001
3.152500e+009 8.874629e-001 1.600854e+002 1.000000e-010 4.500000e+001 1.000000e-010 4.500000e+001 1.000000e-010 4.500000e+001
3.153750e+009 8.876208e-001 1.598502e+002 1.000000e-010 4.500000e+001 1.000000e-010 4.500000e+001 1.000000e-010 4.500000e+001
3.155000e+009 8.887052e-001 1.596472e+002 1.000000e-010 4.500000e+001 1.000000e-010 4.500000e+001 1.000000e-010 4.500000e+001
3.156250e+009 8.853913e-001 1.592631e+002 1.000000e-010 4.500000e+001 1.000000e-010 4.500000e+001 1.000000e-010 4.500000e+001
3.157500e+009 8.866706e-001 1.590275e+002 1.000000e-010 4.500000e+001 1.000000e-010 4.500000e+001 1.000000e-010 4.500000e+001
3.158750e+009 8.849441e-001 1.588296e+002 1.000000e-010 4.500000e+001 1.000000e-010 4.500000e+001 1.000000e-010 4.500000e+001
3.160000e+009 8.854918e-001 1.585172e+002 1.000000e-010 4.500000e+001 1.000000e-010 4.500000e+001 1.000000e-010 4.500000e+001
3.161250e+009 8.837019e-001 1.583259e+002 1.000000e-010 4.500000e+001 1.000000e-010 4.500000e+001 1.000000e-010 4.500000e+001
3.162500e+009 8.843209e-001 1.580110e+002 1.000000e-010 4.500000e+001 1.000000e-010 4.500000e+001 1.000000e-010 4.500000e+001
3.163750e+009 8.850699e-001 1.577867e+002 1.000000e-010 4.500000e+001 1.000000e-010 4.500000e+001 1.000000e-010 4.500000e+001
3.165000e+009 8.840559e-001 1.575314e+002 1.000000e-010 4.500000e+001 1.000000e-010 4.500000e+001 1.000000e-010 4.500000e+001
3.166250e+009 8.830894e-001 1.572700e+002 1.000000e-010 4.500000e+001 1.000000e-010 4.500000e+001 1.000000e-010 4.500000e+001
3.167500e+009 8.822637e-001 1.570739e+002 1.000000e-010 4.500000e+001 1.000000e-010 4.500000e+001 1.000000e-010 4.500000e+001
3.168750e+009 8.824733e-001 1.567883e+002 1.000000e-010 4.500000e+001 1.000000e-010 4.500000e+001 1.000000e-010 4.500000e+001
3.170000e+009 8.816372e-001 1.565858e+002 1.000000e-010 4.500000e+001 1.000000e-010 4.500000e+001 1.000000e-010 4.500000e+001
3.171250e+009 8.822256e-001 1.563593e+002 1.000000e-010 4.500000e+001 1.000000e-010 4.500000e+001 1.000000e-010 4.500000e+001
3.172500e+009 8.807630e-001 1.560787e+002 1.000000e-010 4.500000e+001 1.000000e-010 4.500000e+001 1.000000e-010 4.500000e+001
3.173750e+009 8.811914e-001 1.558881e+002 1.000000e-010 4.500000e+001 1.000000e-010 4.500000e+001 1.000000e-010 4.500000e+001
3.175000e+009 8.798743e-001 1.557078e+002 1.000000e-010 4.500000e+001 1.000000e-010 4.500000e+001 1.000000e-010 4.500000e+001
3.176250e+009 8.806469e-001 1.555160e+002 1.000000e-010 4.500000e+001 1.000000e-010 4.500000e+001 1.000000e-010 4.500000e+001
3.177500e+009 8.786517e-001 1.552586e+002 1.000000e-010 4.500000e+001 1.000000e-010 4.500000e+001 1.000000e-010 4.500000e+001
3.178750e+009 8.791929e-001 1.550908e+002 1.000000e-010 4.500000e+001 1.000000e-010 4.500000e+001 1.000000e-010 4.500000e+001
3.180000e+009 8.786792e-001 1.548151e+002 1.000000e-010 4.500000e+001 1.000000e-010 4.500000e+001 1.000000e-010 4.500000e+001
3.181250e+009 8.764541e-001 1.546905e+002 1.000000e-010 4.500000e+001 1.000000e-010 4.500000e+001 1.000000e-010 4.500000e+001
3.182500e+009 8.769934e-001 1.544671e+002 1.000000e-010 4.500000e+001 1.000000e-010 4.500000e+001 1.000000e-010 4.500000e+001
3.183750e+009 8.761227e-001 1.542675e+002 1.000000e-010 4.500000e+001 1.000000e-010 4.500000e+001 1.000000e-010 4.500000e+001
3.185000e+009 8.785818e-001 1.540853e+002 1.000000e-010 4.500000e+001 1.000000e-010 4.500000e+001 1.000000e-010 4.500000e+001
3.186250e+009 8.761480e-001 1.539178e+002 1.000000e-010 4.500000e+001 1.000000e-010 4.500000e+001 1.000000e-010 4.500000e+001
3.187500e+009 8.756158e-001 1.537232e+002 1.000000e-010 4.500000e+001 1.000000e-010 4.500000e+001 1.000000e-010 4.500000e+001
3.188750e+009 8.736297e-001 1.535384e+002 1.000000e-010 4.500000e+001 1.000000e-010 4.500000e+001 1.000000e-010 4.500000e+001
3.190000e+009 8.737991e-001 1.534009e+002 1.000000e-010 4.500000e+001 1.000000e-010 4.500000e+001 1.000000e-010 4.500000e+001
3.191250e+009 8.735303e-001 1.531681e+002 1.000000e-010 4.500000e+001 1.000000e-010 4.500000e+001 1.000000e-010 4.500000e+001
3.192500e+009 8.721533e-001 1.529953e+002 1.000000e-010 4.500000e+001 1.000000e-010 4.500000e+001 1.000000e-010 4.500000e+001
